Time [s],Packet ID,Address,Data,Read/Write,ACK/NAK

0.000175000000000,1,0x2B,0x1E,Read,ACK
0.000198666666667,1,0x2B,0x00,Read,ACK
0.000222250000000,1,0x2B,0x00,Read,ACK
0.000245916666667,1,0x2B,0x01,Read,ACK
0.000269583333333,1,0x2B,0x85,Read,ACK
0.000293250000000,1,0x2B,0x00,Read,ACK
0.000316833333333,1,0x2B,0x02,Read,ACK
0.000340500000000,1,0x2B,0x00,Read,ACK
0.000364166666667,1,0x2B,0x03,Read,ACK
0.000387833333333,1,0x2B,0x00,Read,ACK
0.000411500000000,1,0x2B,0x1E,Read,ACK
0.000435083333333,1,0x2B,0x00,Read,ACK
0.000458750000000,1,0x2B,0x04,Read,ACK
0.000482416666667,1,0x2B,0x00,Read,ACK
0.000506083333333,1,0x2B,0x42,Read,ACK
0.000529750000000,1,0x2B,0x00,Read,ACK
0.000553333333333,1,0x2B,0x05,Read,ACK
0.000577000000000,1,0x2B,0x00,Read,ACK
0.000600666666667,1,0x2B,0x06,Read,ACK
0.000624333333333,1,0x2B,0x00,Read,ACK
0.000648000000000,1,0x2B,0x05,Read,ACK
0.000671583333333,1,0x2B,0x0B,Read,ACK
0.000695250000000,1,0x2B,0x01,Read,ACK
0.000718916666667,1,0x2B,0x01,Read,ACK
0.000742583333333,1,0x2B,0x07,Read,ACK
0.000766250000000,1,0x2B,0x00,Read,ACK
0.000789833333333,1,0x2B,0x00,Read,ACK
0.000813416666667,1,0x2B,0x00,Read,ACK
0.000837083333333,1,0x2B,0x00,Read,ACK
0.000860750000000,1,0x2B,0x00,Read,NAK

0.002619666666667,4,0x2B,0x00,Read,ACK
0.002643250000000,4,0x2B,0x00,Read,ACK
0.002666833333333,4,0x2B,0x00,Read,ACK
0.002690416666667,4,0x2B,0x00,Read,ACK
0.002714083333333,4,0x2B,0x00,Read,ACK
0.002737666666667,4,0x2B,0x00,Read,ACK
0.002761333333333,4,0x2B,0x00,Read,ACK
0.002784916666667,4,0x2B,0x00,Read,ACK
0.002808583333333,4,0x2B,0x00,Read,ACK
0.002832250000000,4,0x2B,0x00,Read,ACK
0.002855833333333,4,0x2B,0x00,Read,ACK
0.002879500000000,4,0x2B,0x00,Read,ACK
0.002903083333333,4,0x2B,0x00,Read,ACK
0.002926750000000,4,0x2B,0x00,Read,ACK
0.002950416666667,4,0x2B,0x00,Read,ACK
0.002974083333333,4,0x2B,0x00,Read,ACK
0.002997750000000,4,0x2B,0x00,Read,ACK
0.003021333333333,4,0x2B,0x00,Read,ACK
0.003045000000000,4,0x2B,0x00,Read,ACK
0.003068666666667,4,0x2B,0x00,Read,ACK
0.003092333333333,4,0x2B,0x00,Read,ACK
0.003116000000000,4,0x2B,0x00,Read,ACK
0.003139583333333,4,0x2B,0x00,Read,ACK
0.003163250000000,4,0x2B,0x00,Read,ACK
0.003186916666667,4,0x2B,0x00,Read,ACK
0.003210583333333,4,0x2B,0x00,Read,ACK
0.003234250000000,4,0x2B,0x00,Read,ACK
0.003257833333333,4,0x2B,0x00,Read,ACK
0.003281500000000,4,0x2B,0x00,Read,ACK
0.003305166666667,4,0x2B,0x00,Read,NAK

0.003850833333333,6,0x2B,0x05,Read,ACK
0.003874416666667,6,0x2B,0x01,Read,ACK
0.003898083333333,6,0x2B,0x09,Read,ACK
0.003921750000000,6,0x2B,0x02,Read,ACK
0.003945416666667,6,0x2B,0xA1,Read,ACK
0.003969083333333,6,0x2B,0x01,Read,ACK
0.003992666666667,6,0x2B,0x85,Read,ACK
0.004016333333333,6,0x2B,0x01,Read,ACK
0.004040000000000,6,0x2B,0x09,Read,ACK
0.004063666666667,6,0x2B,0x01,Read,ACK
0.004087250000000,6,0x2B,0xA1,Read,ACK
0.004110916666667,6,0x2B,0x00,Read,ACK
0.004134583333333,6,0x2B,0x05,Read,ACK
0.004158250000000,6,0x2B,0x09,Read,ACK
0.004181916666667,6,0x2B,0x19,Read,ACK
0.004205500000000,6,0x2B,0x01,Read,ACK
0.004229166666667,6,0x2B,0x29,Read,ACK
0.004252833333333,6,0x2B,0x02,Read,ACK
0.004276416666667,6,0x2B,0x15,Read,ACK
0.004300083333333,6,0x2B,0x00,Read,ACK
0.004323750000000,6,0x2B,0x25,Read,ACK
0.004347416666667,6,0x2B,0x01,Read,ACK
0.004371000000000,6,0x2B,0x75,Read,ACK
0.004394666666667,6,0x2B,0x01,Read,ACK
0.004418333333333,6,0x2B,0x95,Read,ACK
0.004442000000000,6,0x2B,0x02,Read,ACK
0.004465583333333,6,0x2B,0x81,Read,ACK
0.004489250000000,6,0x2B,0x02,Read,ACK
0.004512916666667,6,0x2B,0x95,Read,ACK
0.004536583333333,6,0x2B,0x06,Read,ACK
0.004560250000000,6,0x2B,0x81,Read,ACK
0.004583833333333,6,0x2B,0x03,Read,ACK
0.004607500000000,6,0x2B,0x05,Read,ACK
0.004631166666667,6,0x2B,0x01,Read,ACK
0.004654833333333,6,0x2B,0x09,Read,ACK
0.004678416666667,6,0x2B,0x30,Read,ACK
0.004702083333333,6,0x2B,0x09,Read,ACK
0.004725750000000,6,0x2B,0x31,Read,ACK
0.004749333333333,6,0x2B,0x09,Read,ACK
0.004773000000000,6,0x2B,0x38,Read,ACK
0.004796666666667,6,0x2B,0x15,Read,ACK
0.004820250000000,6,0x2B,0x81,Read,ACK
0.004843916666667,6,0x2B,0x25,Read,ACK
0.004867583333333,6,0x2B,0x7F,Read,ACK
0.004891166666667,6,0x2B,0x75,Read,ACK
0.004914833333333,6,0x2B,0x08,Read,ACK
0.004938500000000,6,0x2B,0x95,Read,ACK
0.004962083333333,6,0x2B,0x03,Read,ACK
0.004985750000000,6,0x2B,0x81,Read,ACK
0.005009416666667,6,0x2B,0x06,Read,ACK
0.005033083333333,6,0x2B,0xC0,Read,ACK
0.005056666666667,6,0x2B,0xC0,Read,ACK
0.005080333333333,6,0x2B,0x06,Read,ACK
0.005103916666667,6,0x2B,0x00,Read,ACK
0.005127583333333,6,0x2B,0xFF,Read,ACK
0.005151250000000,6,0x2B,0x09,Read,ACK
0.005174916666667,6,0x2B,0xC5,Read,ACK
0.005198500000000,6,0x2B,0xA1,Read,ACK
0.005222166666667,6,0x2B,0x01,Read,ACK
0.005245833333333,6,0x2B,0x85,Read,ACK
0.005269500000000,6,0x2B,0x0D,Read,ACK
0.005293083333333,6,0x2B,0x09,Read,ACK
0.005316750000000,6,0x2B,0xC5,Read,ACK
0.005340333333333,6,0x2B,0x15,Read,ACK
0.005364000000000,6,0x2B,0x00,Read,ACK
0.005387666666667,6,0x2B,0x26,Read,ACK
0.005411250000000,6,0x2B,0xFF,Read,ACK
0.005434916666667,6,0x2B,0x00,Read,ACK
0.005458500000000,6,0x2B,0x75,Read,ACK
0.005482166666667,6,0x2B,0x08,Read,ACK
0.005505833333333,6,0x2B,0x95,Read,ACK
0.005529500000000,6,0x2B,0x04,Read,ACK
0.005553083333333,6,0x2B,0xB1,Read,ACK
0.005576750000000,6,0x2B,0x02,Read,ACK
0.005600416666667,6,0x2B,0x85,Read,ACK
0.005624083333333,6,0x2B,0x0C,Read,ACK
0.005647750000000,6,0x2B,0x09,Read,ACK
0.005671333333333,6,0x2B,0xC6,Read,ACK
0.005694916666667,6,0x2B,0x96,Read,ACK
0.005718583333333,6,0x2B,0x76,Read,ACK
0.005742250000000,6,0x2B,0x02,Read,ACK
0.005765916666667,6,0x2B,0x75,Read,ACK
0.005789500000000,6,0x2B,0x08,Read,ACK
0.005813166666667,6,0x2B,0xB1,Read,ACK
0.005836833333333,6,0x2B,0x02,Read,ACK
0.005860500000000,6,0x2B,0x85,Read,ACK
0.005884166666667,6,0x2B,0x0B,Read,ACK
0.005907750000000,6,0x2B,0x09,Read,ACK
0.005931416666667,6,0x2B,0xC7,Read,ACK
0.005955000000000,6,0x2B,0x95,Read,ACK
0.005978666666667,6,0x2B,0x80,Read,ACK
0.006002333333333,6,0x2B,0x75,Read,ACK
0.006026000000000,6,0x2B,0x08,Read,ACK
0.006049666666667,6,0x2B,0xB1,Read,ACK
0.006073250000000,6,0x2B,0x02,Read,ACK
0.006096916666667,6,0x2B,0x85,Read,ACK
0.006120583333333,6,0x2B,0x5D,Read,ACK
0.006144250000000,6,0x2B,0x09,Read,ACK
0.006167833333333,6,0x2B,0x01,Read,ACK
0.006191500000000,6,0x2B,0x95,Read,ACK
0.006215166666667,6,0x2B,0x1B,Read,ACK
0.006238833333333,6,0x2B,0x75,Read,ACK
0.006262500000000,6,0x2B,0x08,Read,ACK
0.006286083333333,6,0x2B,0x81,Read,ACK
0.006309750000000,6,0x2B,0x06,Read,ACK
0.006333416666667,6,0x2B,0xC0,Read,ACK
0.006357083333333,6,0x2B,0x06,Read,ACK
0.006380750000000,6,0x2B,0x00,Read,ACK
0.006404333333333,6,0x2B,0xFF,Read,ACK
0.006428000000000,6,0x2B,0x09,Read,ACK
0.006451583333333,6,0x2B,0x01,Read,ACK
0.006475250000000,6,0x2B,0xA1,Read,ACK
0.006498916666667,6,0x2B,0x01,Read,ACK
0.006522583333333,6,0x2B,0x15,Read,ACK
0.006546166666667,6,0x2B,0x00,Read,ACK
0.006569833333333,6,0x2B,0x26,Read,ACK
0.006593500000000,6,0x2B,0xFF,Read,ACK
0.006617083333333,6,0x2B,0x00,Read,ACK
0.006640750000000,6,0x2B,0x75,Read,ACK
0.006664416666667,6,0x2B,0x08,Read,ACK
0.006688000000000,6,0x2B,0x85,Read,ACK
0.006711666666667,6,0x2B,0x06,Read,ACK
0.006735250000000,6,0x2B,0x95,Read,ACK
0.006758833333333,6,0x2B,0x3F,Read,ACK
0.006782500000000,6,0x2B,0x09,Read,ACK
0.006806083333333,6,0x2B,0x01,Read,ACK
0.006829750000000,6,0x2B,0x81,Read,ACK
0.006853416666667,6,0x2B,0x02,Read,ACK
0.006877083333333,6,0x2B,0x09,Read,ACK
0.006900750000000,6,0x2B,0x01,Read,ACK
0.006924333333333,6,0x2B,0x91,Read,ACK
0.006948000000000,6,0x2B,0x02,Read,ACK
0.006971666666667,6,0x2B,0xC0,Read,NAK

0.127216666666667,9,0x2B,0x07,Read,ACK
0.127240333333333,9,0x2B,0x00,Read,ACK
0.127263916666667,9,0x2B,0x0D,Read,ACK
0.127287583333333,9,0x2B,0x44,Read,ACK
0.127311250000000,9,0x2B,0x03,Read,ACK
0.127334916666667,9,0x2B,0x00,Read,ACK
0.127358500000000,9,0x2B,0x00,Read,NAK

0.317954000000000,13,0x2B,0x07,Read,ACK
0.317977583333333,13,0x2B,0x00,Read,ACK
0.318001166666667,13,0x2B,0x0D,Read,ACK
0.318024666666667,13,0x2B,0x06,Read,ACK
0.318048333333333,13,0x2B,0x01,Read,ACK
0.318071916666667,13,0x2B,0xF0,Read,ACK
0.318095583333333,13,0x2B,0x0A,Read,NAK

0.443438166666667,16,0x2B,0x07,Read,ACK
0.443461916666667,16,0x2B,0x00,Read,ACK
0.443485500000000,16,0x2B,0x0D,Read,ACK
0.443509166666667,16,0x2B,0x07,Read,ACK
0.443532750000000,16,0x2B,0x01,Read,ACK
0.443556416666667,16,0x2B,0xE7,Read,ACK
0.443579916666667,16,0x2B,0x06,Read,NAK

0.568166500000000,19,0x2B,0x07,Read,ACK
0.568190166666667,19,0x2B,0x00,Read,ACK
0.568213750000000,19,0x2B,0x0D,Read,ACK
0.568237416666667,19,0x2B,0x0A,Read,ACK
0.568261000000000,19,0x2B,0x01,Read,ACK
0.568284666666667,19,0x2B,0xF8,Read,ACK
0.568308333333333,19,0x2B,0x03,Read,NAK

0.693041500000000,22,0x2B,0x07,Read,ACK
0.693065083333333,22,0x2B,0x00,Read,ACK
0.693088750000000,22,0x2B,0x0D,Read,ACK
0.693112333333333,22,0x2B,0x0B,Read,ACK
0.693135833333333,22,0x2B,0x01,Read,ACK
0.693159500000000,22,0x2B,0xBD,Read,ACK
0.693183083333333,22,0x2B,0x02,Read,NAK

0.818133416666667,25,0x2B,0x07,Read,ACK
0.818157000000000,25,0x2B,0x00,Read,ACK
0.818180666666667,25,0x2B,0x0D,Read,ACK
0.818204250000000,25,0x2B,0x00,Read,ACK
0.818227916666667,25,0x2B,0x01,Read,ACK
0.818251583333333,25,0x2B,0x07,Read,ACK
0.818275250000000,25,0x2B,0x07,Read,NAK

0.931199416666667,28,0x2B,0x07,Read,ACK
0.931223000000000,28,0x2B,0x00,Read,ACK
0.931246666666667,28,0x2B,0x0D,Read,ACK
0.931270250000000,28,0x2B,0x03,Read,ACK
0.931293833333333,28,0x2B,0x01,Read,ACK
0.931317500000000,28,0x2B,0x07,Read,ACK
0.931341083333333,28,0x2B,0x07,Read,NAK
