Time [s],Packet ID,Address,Data,Read/Write,ACK/NAK
0.000020416666667,0,0x2B,0x07,Read,ACK
0.000044833333333,0,0x2B,0x00,Read,ACK
0.000069166666667,0,0x2B,0x01,Read,ACK
0.000093500000000,0,0x2B,0x00,Read,ACK
0.000117833333333,0,0x2B,0x00,Read,ACK
0.000142250000000,0,0x2B,0x00,Read,ACK
0.000166500000000,0,0x2B,0x00,Read,ACK
0.000190833333333,0,0x2B,0x00,Read,ACK
0.000215083333333,0,0x2B,0x00,Read,ACK
0.000239333333333,0,0x2B,0x00,Read,ACK
0.000263666666667,0,0x2B,0x00,Read,ACK
0.000288000000000,0,0x2B,0x00,Read,ACK
0.000312333333333,0,0x2B,0x00,Read,ACK
0.000336583333333,0,0x2B,0x00,Read,ACK
0.000360916666667,0,0x2B,0x00,Read,ACK
0.000385166666667,0,0x2B,0x00,Read,ACK
0.000409500000000,0,0x2B,0x00,Read,ACK
0.000433916666667,0,0x2B,0x00,Read,ACK
0.000458166666667,0,0x2B,0x00,Read,ACK
0.000482583333333,0,0x2B,0x00,Read,ACK
0.000506916666667,0,0x2B,0x00,Read,ACK
0.000531250000000,0,0x2B,0x00,Read,ACK
0.000555583333333,0,0x2B,0x00,Read,ACK
0.000579916666667,0,0x2B,0x00,Read,ACK
0.000604166666667,0,0x2B,0x00,Read,ACK
0.000628500000000,0,0x2B,0x00,Read,ACK
0.000652750000000,0,0x2B,0x00,Read,ACK
0.000677083333333,0,0x2B,0x00,Read,ACK
0.000701416666667,0,0x2B,0x00,Read,ACK
0.000725750000000,0,0x2B,0x00,Read,NAK
0.007593166666667,1,0x2B,0x07,Read,ACK
0.007617500000000,1,0x2B,0x00,Read,ACK
0.007641916666667,1,0x2B,0x01,Read,ACK
0.007666333333333,1,0x2B,0x00,Read,ACK
0.007690666666667,1,0x2B,0x00,Read,ACK
0.007715000000000,1,0x2B,0x00,Read,ACK
0.007739333333333,1,0x2B,0x00,Read,ACK
0.007763750000000,1,0x2B,0x00,Read,ACK
0.007788083333333,1,0x2B,0x00,Read,ACK
0.007812416666667,1,0x2B,0x00,Read,ACK
0.007836666666667,1,0x2B,0x00,Read,ACK
0.007861000000000,1,0x2B,0x00,Read,ACK
0.007885333333333,1,0x2B,0x00,Read,ACK
0.007909666666667,1,0x2B,0x00,Read,ACK
0.007934000000000,1,0x2B,0x00,Read,ACK
0.007958333333333,1,0x2B,0x00,Read,ACK
0.007982666666667,1,0x2B,0x00,Read,ACK
0.008007000000000,1,0x2B,0x00,Read,ACK
0.008031333333333,1,0x2B,0x00,Read,ACK
0.008055666666667,1,0x2B,0x00,Read,ACK
0.008079916666667,1,0x2B,0x00,Read,ACK
0.008104333333333,1,0x2B,0x00,Read,ACK
0.008128583333333,1,0x2B,0x00,Read,ACK
0.008152916666667,1,0x2B,0x00,Read,ACK
0.008177250000000,1,0x2B,0x00,Read,ACK
0.008201583333333,1,0x2B,0x00,Read,ACK
0.008225916666667,1,0x2B,0x00,Read,ACK
0.008250250000000,1,0x2B,0x00,Read,ACK
0.008274583333333,1,0x2B,0x00,Read,ACK
0.008298916666667,1,0x2B,0x00,Read,NAK
0.015107416666667,2,0x2B,0x07,Read,ACK
0.015131750000000,2,0x2B,0x00,Read,ACK
0.015156166666667,2,0x2B,0x01,Read,ACK
0.015180583333333,2,0x2B,0x00,Read,ACK
0.015205000000000,2,0x2B,0x00,Read,ACK
0.015229416666667,2,0x2B,0x00,Read,ACK
0.015253833333333,2,0x2B,0x00,Read,ACK
0.015278166666667,2,0x2B,0x00,Read,ACK
0.015302583333333,2,0x2B,0x00,Read,ACK
0.015326916666667,2,0x2B,0x00,Read,ACK
0.015351166666667,2,0x2B,0x00,Read,ACK
0.015375500000000,2,0x2B,0x00,Read,ACK
0.015399750000000,2,0x2B,0x00,Read,ACK
0.015424083333333,2,0x2B,0x00,Read,ACK
0.015448416666667,2,0x2B,0x00,Read,ACK
0.015472750000000,2,0x2B,0x00,Read,ACK
0.015497083333333,2,0x2B,0x00,Read,ACK
0.015521333333333,2,0x2B,0x00,Read,ACK
0.015545666666667,2,0x2B,0x00,Read,ACK
0.015570000000000,2,0x2B,0x00,Read,ACK
0.015594250000000,2,0x2B,0x00,Read,ACK
0.015618583333333,2,0x2B,0x00,Read,ACK
0.015642916666667,2,0x2B,0x00,Read,ACK
0.015667166666667,2,0x2B,0x00,Read,ACK
0.015691583333333,2,0x2B,0x00,Read,ACK
0.015715916666667,2,0x2B,0x00,Read,ACK
0.015740166666667,2,0x2B,0x00,Read,ACK
0.015764500000000,2,0x2B,0x00,Read,ACK
0.015788750000000,2,0x2B,0x00,Read,ACK
0.015813083333333,2,0x2B,0x00,Read,NAK
0.022692083333333,3,0x2B,0x07,Read,ACK
0.022716416666667,3,0x2B,0x00,Read,ACK
0.022740833333333,3,0x2B,0x01,Read,ACK
0.022765250000000,3,0x2B,0x00,Read,ACK
0.022789666666667,3,0x2B,0x00,Read,ACK
0.022814000000000,3,0x2B,0x00,Read,ACK
0.022838416666667,3,0x2B,0x00,Read,ACK
0.022862833333333,3,0x2B,0x00,Read,ACK
0.022887166666667,3,0x2B,0x00,Read,ACK
0.022911500000000,3,0x2B,0x00,Read,ACK
0.022935833333333,3,0x2B,0x00,Read,ACK
0.022960250000000,3,0x2B,0x00,Read,ACK
0.022984583333333,3,0x2B,0x00,Read,ACK
0.023008916666667,3,0x2B,0x00,Read,ACK
0.023033250000000,3,0x2B,0x00,Read,ACK
0.023057583333333,3,0x2B,0x00,Read,ACK
0.023081916666667,3,0x2B,0x00,Read,ACK
0.023106333333333,3,0x2B,0x00,Read,ACK
0.023130666666667,3,0x2B,0x00,Read,ACK
0.023155000000000,3,0x2B,0x00,Read,ACK
0.023179333333333,3,0x2B,0x00,Read,ACK
0.023203666666667,3,0x2B,0x00,Read,ACK
0.023228083333333,3,0x2B,0x00,Read,ACK
0.023252416666667,3,0x2B,0x00,Read,ACK
0.023276750000000,3,0x2B,0x00,Read,ACK
0.023301083333333,3,0x2B,0x00,Read,ACK
0.023325416666667,3,0x2B,0x00,Read,ACK
0.023349833333333,3,0x2B,0x00,Read,ACK
0.023374166666667,3,0x2B,0x00,Read,ACK
0.023398416666667,3,0x2B,0x00,Read,NAK
0.030286416666667,4,0x2B,0x07,Read,ACK
0.030310750000000,4,0x2B,0x00,Read,ACK
0.030335166666667,4,0x2B,0x01,Read,ACK
0.030359500000000,4,0x2B,0x00,Read,ACK
0.030383916666667,4,0x2B,0x00,Read,ACK
0.030408250000000,4,0x2B,0x00,Read,ACK
0.030432666666667,4,0x2B,0x00,Read,ACK
0.030457000000000,4,0x2B,0x00,Read,ACK
0.030481416666667,4,0x2B,0x00,Read,ACK
0.030505750000000,4,0x2B,0x00,Read,ACK
0.030530083333333,4,0x2B,0x00,Read,ACK
0.030554500000000,4,0x2B,0x00,Read,ACK
0.030578833333333,4,0x2B,0x00,Read,ACK
0.030603166666667,4,0x2B,0x00,Read,ACK
0.030627500000000,4,0x2B,0x00,Read,ACK
0.030651916666667,4,0x2B,0x00,Read,ACK
0.030676250000000,4,0x2B,0x00,Read,ACK
0.030700666666667,4,0x2B,0x00,Read,ACK
0.030725000000000,4,0x2B,0x00,Read,ACK
0.030749333333333,4,0x2B,0x00,Read,ACK
0.030773750000000,4,0x2B,0x00,Read,ACK
0.030798083333333,4,0x2B,0x00,Read,ACK
0.030822416666667,4,0x2B,0x00,Read,ACK
0.030846750000000,4,0x2B,0x00,Read,ACK
0.030871083333333,4,0x2B,0x00,Read,ACK
0.030895500000000,4,0x2B,0x00,Read,ACK
0.030919833333333,4,0x2B,0x00,Read,ACK
0.030944166666667,4,0x2B,0x00,Read,ACK
0.030968583333333,4,0x2B,0x00,Read,ACK
0.030992916666667,4,0x2B,0x00,Read,NAK
0.037870916666667,5,0x2B,0x07,Read,ACK
0.037895250000000,5,0x2B,0x00,Read,ACK
0.037919666666667,5,0x2B,0x01,Read,ACK
0.037944083333333,5,0x2B,0x00,Read,ACK
0.037968416666667,5,0x2B,0x00,Read,ACK
0.037992750000000,5,0x2B,0x00,Read,ACK
0.038017083333333,5,0x2B,0x00,Read,ACK
0.038041500000000,5,0x2B,0x00,Read,ACK
0.038065833333333,5,0x2B,0x00,Read,ACK
0.038090083333333,5,0x2B,0x00,Read,ACK
0.038114416666667,5,0x2B,0x00,Read,ACK
0.038138750000000,5,0x2B,0x00,Read,ACK
0.038163083333333,5,0x2B,0x00,Read,ACK
0.038187416666667,5,0x2B,0x00,Read,ACK
0.038211666666667,5,0x2B,0x00,Read,ACK
0.038235916666667,5,0x2B,0x00,Read,ACK
0.038260250000000,5,0x2B,0x00,Read,ACK
0.038284583333333,5,0x2B,0x00,Read,ACK
0.038308833333333,5,0x2B,0x00,Read,ACK
0.038333083333333,5,0x2B,0x00,Read,ACK
0.038357416666667,5,0x2B,0x00,Read,ACK
0.038381750000000,5,0x2B,0x00,Read,ACK
0.038406083333333,5,0x2B,0x00,Read,ACK
0.038430416666667,5,0x2B,0x00,Read,ACK
0.038454666666667,5,0x2B,0x00,Read,ACK
0.038478916666667,5,0x2B,0x00,Read,ACK
0.038503250000000,5,0x2B,0x00,Read,ACK
0.038527583333333,5,0x2B,0x00,Read,ACK
0.038551916666667,5,0x2B,0x00,Read,ACK
0.038576250000000,5,0x2B,0x00,Read,NAK
0.045447750000000,6,0x2B,0x07,Read,ACK
0.045472083333333,6,0x2B,0x00,Read,ACK
0.045496416666667,6,0x2B,0x01,Read,ACK
0.045520833333333,6,0x2B,0x00,Read,ACK
0.045545166666667,6,0x2B,0x00,Read,ACK
0.045569583333333,6,0x2B,0x00,Read,ACK
0.045593916666667,6,0x2B,0x00,Read,ACK
0.045618250000000,6,0x2B,0x00,Read,ACK
0.045642583333333,6,0x2B,0x00,Read,ACK
0.045666916666667,6,0x2B,0x00,Read,ACK
0.045691250000000,6,0x2B,0x00,Read,ACK
0.045715500000000,6,0x2B,0x00,Read,ACK
0.045739750000000,6,0x2B,0x00,Read,ACK
0.045764000000000,6,0x2B,0x00,Read,ACK
0.045788333333333,6,0x2B,0x00,Read,ACK
0.045812583333333,6,0x2B,0x00,Read,ACK
0.045836916666667,6,0x2B,0x00,Read,ACK
0.045861250000000,6,0x2B,0x00,Read,ACK
0.045885583333333,6,0x2B,0x00,Read,ACK
0.045910000000000,6,0x2B,0x00,Read,ACK
0.045934333333333,6,0x2B,0x00,Read,ACK
0.045958666666667,6,0x2B,0x00,Read,ACK
0.045983000000000,6,0x2B,0x00,Read,ACK
0.046007333333333,6,0x2B,0x00,Read,ACK
0.046031666666667,6,0x2B,0x00,Read,ACK
0.046056083333333,6,0x2B,0x00,Read,ACK
0.046080416666667,6,0x2B,0x00,Read,ACK
0.046104750000000,6,0x2B,0x00,Read,ACK
0.046129083333333,6,0x2B,0x00,Read,ACK
0.046153333333333,6,0x2B,0x00,Read,NAK
0.053068666666667,7,0x2B,0x07,Read,ACK
0.053093000000000,7,0x2B,0x00,Read,ACK
0.053117416666667,7,0x2B,0x01,Read,ACK
0.053141833333333,7,0x2B,0x00,Read,ACK
0.053166250000000,7,0x2B,0x00,Read,ACK
0.053190666666667,7,0x2B,0x00,Read,ACK
0.053215083333333,7,0x2B,0x00,Read,ACK
0.053239500000000,7,0x2B,0x00,Read,ACK
0.053263916666667,7,0x2B,0x00,Read,ACK
0.053288250000000,7,0x2B,0x00,Read,ACK
0.053312583333333,7,0x2B,0x00,Read,ACK
0.053336916666667,7,0x2B,0x00,Read,ACK
0.053361250000000,7,0x2B,0x00,Read,ACK
0.053385666666667,7,0x2B,0x00,Read,ACK
0.053410000000000,7,0x2B,0x00,Read,ACK
0.053434333333333,7,0x2B,0x00,Read,ACK
0.053458666666667,7,0x2B,0x00,Read,ACK
0.053483083333333,7,0x2B,0x00,Read,ACK
0.053507416666667,7,0x2B,0x00,Read,ACK
0.053531750000000,7,0x2B,0x00,Read,ACK
0.053556083333333,7,0x2B,0x00,Read,ACK
0.053580416666667,7,0x2B,0x00,Read,ACK
0.053604833333333,7,0x2B,0x00,Read,ACK
0.053629250000000,7,0x2B,0x00,Read,ACK
0.053653666666667,7,0x2B,0x00,Read,ACK
0.053678000000000,7,0x2B,0x00,Read,ACK
0.053702333333333,7,0x2B,0x00,Read,ACK
0.053726666666667,7,0x2B,0x00,Read,ACK
0.053751083333333,7,0x2B,0x00,Read,ACK
0.053775416666667,7,0x2B,0x00,Read,NAK
0.060619083333333,8,0x2B,0x07,Read,ACK
0.060643416666667,8,0x2B,0x00,Read,ACK
0.060667833333333,8,0x2B,0x01,Read,ACK
0.060692250000000,8,0x2B,0x00,Read,ACK
0.060716666666667,8,0x2B,0x03,Read,ACK
0.060741083333333,8,0x2B,0xFE,Read,ACK
0.060765500000000,8,0x2B,0x00,Read,ACK
0.060789833333333,8,0x2B,0x00,Read,ACK
0.060814250000000,8,0x2B,0x00,Read,ACK
0.060838583333333,8,0x2B,0x00,Read,ACK
0.060862916666667,8,0x2B,0x00,Read,ACK
0.060887250000000,8,0x2B,0x00,Read,ACK
0.060911500000000,8,0x2B,0x00,Read,ACK
0.060935833333333,8,0x2B,0x00,Read,ACK
0.060960083333333,8,0x2B,0x00,Read,ACK
0.060984416666667,8,0x2B,0x00,Read,ACK
0.061008750000000,8,0x2B,0x00,Read,ACK
0.061033000000000,8,0x2B,0x00,Read,ACK
0.061057333333333,8,0x2B,0x00,Read,ACK
0.061081583333333,8,0x2B,0x00,Read,ACK
0.061105916666667,8,0x2B,0x00,Read,ACK
0.061130250000000,8,0x2B,0x00,Read,ACK
0.061154583333333,8,0x2B,0x00,Read,ACK
0.061178916666667,8,0x2B,0x00,Read,ACK
0.061203250000000,8,0x2B,0x00,Read,ACK
0.061227583333333,8,0x2B,0x00,Read,ACK
0.061251916666667,8,0x2B,0x00,Read,ACK
0.061276250000000,8,0x2B,0x00,Read,ACK
0.061300666666667,8,0x2B,0x00,Read,ACK
0.061325000000000,8,0x2B,0x00,Read,NAK
0.068204666666667,9,0x2B,0x07,Read,ACK
0.068229083333333,9,0x2B,0x00,Read,ACK
0.068253500000000,9,0x2B,0x01,Read,ACK
0.068277916666667,9,0x2B,0x00,Read,ACK
0.068302333333333,9,0x2B,0x00,Read,ACK
0.068326750000000,9,0x2B,0x00,Read,ACK
0.068351250000000,9,0x2B,0x00,Read,ACK
0.068375583333333,9,0x2B,0x00,Read,ACK
0.068400000000000,9,0x2B,0x00,Read,ACK
0.068424333333333,9,0x2B,0x00,Read,ACK
0.068448666666667,9,0x2B,0x00,Read,ACK
0.068473083333333,9,0x2B,0x00,Read,ACK
0.068497416666667,9,0x2B,0x00,Read,ACK
0.068521666666667,9,0x2B,0x00,Read,ACK
0.068546000000000,9,0x2B,0x00,Read,ACK
0.068570250000000,9,0x2B,0x00,Read,ACK
0.068594500000000,9,0x2B,0x00,Read,ACK
0.068618833333333,9,0x2B,0x00,Read,ACK
0.068643083333333,9,0x2B,0x00,Read,ACK
0.068667416666667,9,0x2B,0x00,Read,ACK
0.068691750000000,9,0x2B,0x00,Read,ACK
0.068716166666667,9,0x2B,0x00,Read,ACK
0.068740416666667,9,0x2B,0x00,Read,ACK
0.068764750000000,9,0x2B,0x00,Read,ACK
0.068789083333333,9,0x2B,0x00,Read,ACK
0.068813416666667,9,0x2B,0x00,Read,ACK
0.068837750000000,9,0x2B,0x00,Read,ACK
0.068862166666667,9,0x2B,0x00,Read,ACK
0.068886583333333,9,0x2B,0x00,Read,ACK
0.068910916666667,9,0x2B,0x00,Read,NAK
0.075786583333333,10,0x2B,0x07,Read,ACK
0.075810916666667,10,0x2B,0x00,Read,ACK
0.075835333333333,10,0x2B,0x01,Read,ACK
0.075859750000000,10,0x2B,0x00,Read,ACK
0.075884166666667,10,0x2B,0x00,Read,ACK
0.075908583333333,10,0x2B,0x00,Read,ACK
0.075933000000000,10,0x2B,0x00,Read,ACK
0.075957333333333,10,0x2B,0x00,Read,ACK
0.075981750000000,10,0x2B,0x00,Read,ACK
0.076006083333333,10,0x2B,0x00,Read,ACK
0.076030416666667,10,0x2B,0x00,Read,ACK
0.076054750000000,10,0x2B,0x00,Read,ACK
0.076079000000000,10,0x2B,0x00,Read,ACK
0.076103333333333,10,0x2B,0x00,Read,ACK
0.076127666666667,10,0x2B,0x00,Read,ACK
0.076152000000000,10,0x2B,0x00,Read,ACK
0.076176333333333,10,0x2B,0x00,Read,ACK
0.076200583333333,10,0x2B,0x00,Read,ACK
0.076224916666667,10,0x2B,0x00,Read,ACK
0.076249250000000,10,0x2B,0x00,Read,ACK
0.076273583333333,10,0x2B,0x00,Read,ACK
0.076297916666667,10,0x2B,0x00,Read,ACK
0.076322166666667,10,0x2B,0x00,Read,ACK
0.076346500000000,10,0x2B,0x00,Read,ACK
0.076370750000000,10,0x2B,0x00,Read,ACK
0.076395166666667,10,0x2B,0x00,Read,ACK
0.076419416666667,10,0x2B,0x00,Read,ACK
0.076443750000000,10,0x2B,0x00,Read,ACK
0.076468083333333,10,0x2B,0x00,Read,ACK
0.076492416666667,10,0x2B,0x00,Read,NAK
0.083352250000000,11,0x2B,0x07,Read,ACK
0.083376666666667,11,0x2B,0x00,Read,ACK
0.083401083333333,11,0x2B,0x01,Read,ACK
0.083425500000000,11,0x2B,0x00,Read,ACK
0.083449916666667,11,0x2B,0x00,Read,ACK
0.083474333333333,11,0x2B,0x00,Read,ACK
0.083498666666667,11,0x2B,0x00,Read,ACK
0.083523083333333,11,0x2B,0x00,Read,ACK
0.083547416666667,11,0x2B,0x00,Read,ACK
0.083571750000000,11,0x2B,0x00,Read,ACK
0.083596083333333,11,0x2B,0x00,Read,ACK
0.083620416666667,11,0x2B,0x00,Read,ACK
0.083644666666667,11,0x2B,0x00,Read,ACK
0.083669000000000,11,0x2B,0x00,Read,ACK
0.083693333333333,11,0x2B,0x00,Read,ACK
0.083717666666667,11,0x2B,0x00,Read,ACK
0.083742000000000,11,0x2B,0x00,Read,ACK
0.083766250000000,11,0x2B,0x00,Read,ACK
0.083790583333333,11,0x2B,0x00,Read,ACK
0.083814833333333,11,0x2B,0x00,Read,ACK
0.083839166666667,11,0x2B,0x00,Read,ACK
0.083863500000000,11,0x2B,0x00,Read,ACK
0.083887916666667,11,0x2B,0x00,Read,ACK
0.083912250000000,11,0x2B,0x00,Read,ACK
0.083936583333333,11,0x2B,0x00,Read,ACK
0.083960916666667,11,0x2B,0x00,Read,ACK
0.083985166666667,11,0x2B,0x00,Read,ACK
0.084009500000000,11,0x2B,0x00,Read,ACK
0.084033750000000,11,0x2B,0x00,Read,ACK
0.084058000000000,11,0x2B,0x00,Read,NAK
0.090975000000000,12,0x2B,0x07,Read,ACK
0.090999250000000,12,0x2B,0x00,Read,ACK
0.091023666666667,12,0x2B,0x01,Read,ACK
0.091048083333333,12,0x2B,0x00,Read,ACK
0.091072416666667,12,0x2B,0x03,Read,ACK
0.091096833333333,12,0x2B,0xFF,Read,ACK
0.091121166666667,12,0x2B,0x00,Read,ACK
0.091145500000000,12,0x2B,0x00,Read,ACK
0.091169916666667,12,0x2B,0x00,Read,ACK
0.091194250000000,12,0x2B,0x00,Read,ACK
0.091218500000000,12,0x2B,0x00,Read,ACK
0.091242833333333,12,0x2B,0x00,Read,ACK
0.091267166666667,12,0x2B,0x00,Read,ACK
0.091291500000000,12,0x2B,0x00,Read,ACK
0.091315833333333,12,0x2B,0x00,Read,ACK
0.091340166666667,12,0x2B,0x00,Read,ACK
0.091364500000000,12,0x2B,0x00,Read,ACK
0.091388833333333,12,0x2B,0x00,Read,ACK
0.091413250000000,12,0x2B,0x00,Read,ACK
0.091437500000000,12,0x2B,0x00,Read,ACK
0.091461833333333,12,0x2B,0x00,Read,ACK
0.091486166666667,12,0x2B,0x00,Read,ACK
0.091510500000000,12,0x2B,0x00,Read,ACK
0.091534833333333,12,0x2B,0x00,Read,ACK
0.091559166666667,12,0x2B,0x00,Read,ACK
0.091583416666667,12,0x2B,0x00,Read,ACK
0.091607750000000,12,0x2B,0x00,Read,ACK
0.091632083333333,12,0x2B,0x00,Read,ACK
0.091656333333333,12,0x2B,0x00,Read,ACK
0.091680750000000,12,0x2B,0x00,Read,NAK
0.098555333333333,13,0x2B,0x07,Read,ACK
0.098579666666667,13,0x2B,0x00,Read,ACK
0.098604083333333,13,0x2B,0x01,Read,ACK
0.098628500000000,13,0x2B,0x00,Read,ACK
0.098652833333333,13,0x2B,0x00,Read,ACK
0.098677166666667,13,0x2B,0x00,Read,ACK
0.098701500000000,13,0x2B,0x00,Read,ACK
0.098725833333333,13,0x2B,0x00,Read,ACK
0.098750250000000,13,0x2B,0x00,Read,ACK
0.098774500000000,13,0x2B,0x00,Read,ACK
0.098798750000000,13,0x2B,0x00,Read,ACK
0.098823083333333,13,0x2B,0x00,Read,ACK
0.098847416666667,13,0x2B,0x00,Read,ACK
0.098871666666667,13,0x2B,0x00,Read,ACK
0.098896000000000,13,0x2B,0x00,Read,ACK
0.098920250000000,13,0x2B,0x00,Read,ACK
0.098944583333333,13,0x2B,0x00,Read,ACK
0.098968833333333,13,0x2B,0x00,Read,ACK
0.098993166666667,13,0x2B,0x00,Read,ACK
0.099017500000000,13,0x2B,0x00,Read,ACK
0.099041750000000,13,0x2B,0x00,Read,ACK
0.099066083333333,13,0x2B,0x00,Read,ACK
0.099090333333333,13,0x2B,0x00,Read,ACK
0.099114666666667,13,0x2B,0x00,Read,ACK
0.099139000000000,13,0x2B,0x00,Read,ACK
0.099163250000000,13,0x2B,0x00,Read,ACK
0.099187500000000,13,0x2B,0x00,Read,ACK
0.099211833333333,13,0x2B,0x00,Read,ACK
0.099236166666667,13,0x2B,0x00,Read,ACK
0.099260416666667,13,0x2B,0x00,Read,NAK
0.106132666666667,14,0x2B,0x07,Read,ACK
0.106156916666667,14,0x2B,0x00,Read,ACK
0.106181333333333,14,0x2B,0x01,Read,ACK
0.106205666666667,14,0x2B,0x00,Read,ACK
0.106230000000000,14,0x2B,0x03,Read,ACK
0.106254333333333,14,0x2B,0xFF,Read,ACK
0.106278666666667,14,0x2B,0x00,Read,ACK
0.106303000000000,14,0x2B,0x00,Read,ACK
0.106327333333333,14,0x2B,0x00,Read,ACK
0.106351750000000,14,0x2B,0x00,Read,ACK
0.106376083333333,14,0x2B,0x00,Read,ACK
0.106400416666667,14,0x2B,0x00,Read,ACK
0.106424750000000,14,0x2B,0x00,Read,ACK
0.106449083333333,14,0x2B,0x00,Read,ACK
0.106473500000000,14,0x2B,0x00,Read,ACK
0.106497833333333,14,0x2B,0x00,Read,ACK
0.106522166666667,14,0x2B,0x00,Read,ACK
0.106546500000000,14,0x2B,0x00,Read,ACK
0.106570833333333,14,0x2B,0x00,Read,ACK
0.106595166666667,14,0x2B,0x00,Read,ACK
0.106619583333333,14,0x2B,0x00,Read,ACK
0.106643916666667,14,0x2B,0x00,Read,ACK
0.106668166666667,14,0x2B,0x00,Read,ACK
0.106692583333333,14,0x2B,0x00,Read,ACK
0.106716916666667,14,0x2B,0x00,Read,ACK
0.106741250000000,14,0x2B,0x00,Read,ACK
0.106765583333333,14,0x2B,0x00,Read,ACK
0.106789916666667,14,0x2B,0x00,Read,ACK
0.106814250000000,14,0x2B,0x00,Read,ACK
0.106838666666667,14,0x2B,0x00,Read,NAK
0.113721833333333,15,0x2B,0x07,Read,ACK
0.113746166666667,15,0x2B,0x00,Read,ACK
0.113770583333333,15,0x2B,0x01,Read,ACK
0.113795000000000,15,0x2B,0x00,Read,ACK
0.113819416666667,15,0x2B,0x02,Read,ACK
0.113843916666667,15,0x2B,0x00,Read,ACK
0.113868333333333,15,0x2B,0x00,Read,ACK
0.113892666666667,15,0x2B,0x00,Read,ACK
0.113917083333333,15,0x2B,0x00,Read,ACK
0.113941500000000,15,0x2B,0x00,Read,ACK
0.113965833333333,15,0x2B,0x00,Read,ACK
0.113990166666667,15,0x2B,0x00,Read,ACK
0.114014500000000,15,0x2B,0x00,Read,ACK
0.114038916666667,15,0x2B,0x00,Read,ACK
0.114063250000000,15,0x2B,0x00,Read,ACK
0.114087583333333,15,0x2B,0x00,Read,ACK
0.114111916666667,15,0x2B,0x00,Read,ACK
0.114136250000000,15,0x2B,0x00,Read,ACK
0.114160666666667,15,0x2B,0x00,Read,ACK
0.114185000000000,15,0x2B,0x00,Read,ACK
0.114209333333333,15,0x2B,0x00,Read,ACK
0.114233666666667,15,0x2B,0x00,Read,ACK
0.114258000000000,15,0x2B,0x00,Read,ACK
0.114282416666667,15,0x2B,0x00,Read,ACK
0.114306833333333,15,0x2B,0x00,Read,ACK
0.114331166666667,15,0x2B,0x00,Read,ACK
0.114355500000000,15,0x2B,0x00,Read,ACK
0.114379833333333,15,0x2B,0x00,Read,ACK
0.114404166666667,15,0x2B,0x00,Read,ACK
0.114428500000000,15,0x2B,0x00,Read,NAK
0.121344666666667,16,0x2B,0x07,Read,ACK
0.121369000000000,16,0x2B,0x00,Read,ACK
0.121393416666667,16,0x2B,0x01,Read,ACK
0.121417750000000,16,0x2B,0x00,Read,ACK
0.121442166666667,16,0x2B,0x03,Read,ACK
0.121466500000000,16,0x2B,0x00,Read,ACK
0.121490916666667,16,0x2B,0x00,Read,ACK
0.121515250000000,16,0x2B,0x00,Read,ACK
0.121539583333333,16,0x2B,0x00,Read,ACK
0.121563916666667,16,0x2B,0x00,Read,ACK
0.121588250000000,16,0x2B,0x00,Read,ACK
0.121612666666667,16,0x2B,0x00,Read,ACK
0.121637000000000,16,0x2B,0x00,Read,ACK
0.121661333333333,16,0x2B,0x00,Read,ACK
0.121685666666667,16,0x2B,0x00,Read,ACK
0.121709916666667,16,0x2B,0x00,Read,ACK
0.121734333333333,16,0x2B,0x00,Read,ACK
0.121758666666667,16,0x2B,0x00,Read,ACK
0.121783000000000,16,0x2B,0x00,Read,ACK
0.121807333333333,16,0x2B,0x00,Read,ACK
0.121831666666667,16,0x2B,0x00,Read,ACK
0.121856000000000,16,0x2B,0x00,Read,ACK
0.121880416666667,16,0x2B,0x00,Read,ACK
0.121904750000000,16,0x2B,0x00,Read,ACK
0.121929000000000,16,0x2B,0x00,Read,ACK
0.121953333333333,16,0x2B,0x00,Read,ACK
0.121977750000000,16,0x2B,0x00,Read,ACK
0.122002083333333,16,0x2B,0x00,Read,ACK
0.122026416666667,16,0x2B,0x00,Read,ACK
0.122050750000000,16,0x2B,0x00,Read,NAK
0.128926666666667,17,0x2B,0x07,Read,ACK
0.128951000000000,17,0x2B,0x00,Read,ACK
0.128975416666667,17,0x2B,0x01,Read,ACK
0.128999833333333,17,0x2B,0x00,Read,ACK
0.129024250000000,17,0x2B,0x04,Read,ACK
0.129048583333333,17,0x2B,0x00,Read,ACK
0.129073000000000,17,0x2B,0x00,Read,ACK
0.129097333333333,17,0x2B,0x00,Read,ACK
0.129121666666667,17,0x2B,0x00,Read,ACK
0.129146083333333,17,0x2B,0x00,Read,ACK
0.129170416666667,17,0x2B,0x00,Read,ACK
0.129194666666667,17,0x2B,0x00,Read,ACK
0.129219000000000,17,0x2B,0x00,Read,ACK
0.129243333333333,17,0x2B,0x00,Read,ACK
0.129267666666667,17,0x2B,0x00,Read,ACK
0.129292000000000,17,0x2B,0x00,Read,ACK
0.129316250000000,17,0x2B,0x00,Read,ACK
0.129340583333333,17,0x2B,0x00,Read,ACK
0.129364916666667,17,0x2B,0x00,Read,ACK
0.129389250000000,17,0x2B,0x00,Read,ACK
0.129413583333333,17,0x2B,0x00,Read,ACK
0.129437916666667,17,0x2B,0x00,Read,ACK
0.129462250000000,17,0x2B,0x00,Read,ACK
0.129486583333333,17,0x2B,0x00,Read,ACK
0.129510916666667,17,0x2B,0x00,Read,ACK
0.129535166666667,17,0x2B,0x00,Read,ACK
0.129559500000000,17,0x2B,0x00,Read,ACK
0.129583833333333,17,0x2B,0x00,Read,ACK
0.129608166666667,17,0x2B,0x00,Read,ACK
0.129632500000000,17,0x2B,0x00,Read,NAK
0.136523583333333,18,0x2B,0x07,Read,ACK
0.136547833333333,18,0x2B,0x00,Read,ACK
0.136572250000000,18,0x2B,0x01,Read,ACK
0.136596666666667,18,0x2B,0x00,Read,ACK
0.136621000000000,18,0x2B,0x05,Read,ACK
0.136645333333333,18,0x2B,0x00,Read,ACK
0.136669666666667,18,0x2B,0x00,Read,ACK
0.136694000000000,18,0x2B,0x00,Read,ACK
0.136718333333333,18,0x2B,0x00,Read,ACK
0.136742666666667,18,0x2B,0x00,Read,ACK
0.136767000000000,18,0x2B,0x00,Read,ACK
0.136791333333333,18,0x2B,0x00,Read,ACK
0.136815666666667,18,0x2B,0x00,Read,ACK
0.136840000000000,18,0x2B,0x00,Read,ACK
0.136864333333333,18,0x2B,0x00,Read,ACK
0.136888583333333,18,0x2B,0x00,Read,ACK
0.136912916666667,18,0x2B,0x00,Read,ACK
0.136937250000000,18,0x2B,0x00,Read,ACK
0.136961583333333,18,0x2B,0x00,Read,ACK
0.136985833333333,18,0x2B,0x00,Read,ACK
0.137010166666667,18,0x2B,0x00,Read,ACK
0.137034416666667,18,0x2B,0x00,Read,ACK
0.137058833333333,18,0x2B,0x00,Read,ACK
0.137083083333333,18,0x2B,0x00,Read,ACK
0.137107416666667,18,0x2B,0x00,Read,ACK
0.137131750000000,18,0x2B,0x00,Read,ACK
0.137156000000000,18,0x2B,0x00,Read,ACK
0.137180333333333,18,0x2B,0x00,Read,ACK
0.137204666666667,18,0x2B,0x00,Read,ACK
0.137229000000000,18,0x2B,0x00,Read,NAK
0.144075416666667,19,0x2B,0x07,Read,ACK
0.144099750000000,19,0x2B,0x00,Read,ACK
0.144124083333333,19,0x2B,0x01,Read,ACK
0.144148500000000,19,0x2B,0x00,Read,ACK
0.144172833333333,19,0x2B,0x05,Read,ACK
0.144197166666667,19,0x2B,0x00,Read,ACK
0.144221583333333,19,0x2B,0x00,Read,ACK
0.144245916666667,19,0x2B,0x00,Read,ACK
0.144270250000000,19,0x2B,0x00,Read,ACK
0.144294583333333,19,0x2B,0x00,Read,ACK
0.144318833333333,19,0x2B,0x00,Read,ACK
0.144343083333333,19,0x2B,0x00,Read,ACK
0.144367416666667,19,0x2B,0x00,Read,ACK
0.144391750000000,19,0x2B,0x00,Read,ACK
0.144416000000000,19,0x2B,0x00,Read,ACK
0.144440416666667,19,0x2B,0x00,Read,ACK
0.144464750000000,19,0x2B,0x00,Read,ACK
0.144489083333333,19,0x2B,0x00,Read,ACK
0.144513416666667,19,0x2B,0x00,Read,ACK
0.144537750000000,19,0x2B,0x00,Read,ACK
0.144562083333333,19,0x2B,0x00,Read,ACK
0.144586416666667,19,0x2B,0x00,Read,ACK
0.144610750000000,19,0x2B,0x00,Read,ACK
0.144635083333333,19,0x2B,0x00,Read,ACK
0.144659416666667,19,0x2B,0x00,Read,ACK
0.144683833333333,19,0x2B,0x00,Read,ACK
0.144708166666667,19,0x2B,0x00,Read,ACK
0.144732500000000,19,0x2B,0x00,Read,ACK
0.144756833333333,19,0x2B,0x00,Read,ACK
0.144781083333333,19,0x2B,0x00,Read,NAK
0.151661000000000,20,0x2B,0x07,Read,ACK
0.151685333333333,20,0x2B,0x00,Read,ACK
0.151709666666667,20,0x2B,0x01,Read,ACK
0.151734083333333,20,0x2B,0x00,Read,ACK
0.151758500000000,20,0x2B,0x05,Read,ACK
0.151782833333333,20,0x2B,0x00,Read,ACK
0.151807166666667,20,0x2B,0x00,Read,ACK
0.151831583333333,20,0x2B,0x00,Read,ACK
0.151855916666667,20,0x2B,0x00,Read,ACK
0.151880250000000,20,0x2B,0x00,Read,ACK
0.151904500000000,20,0x2B,0x00,Read,ACK
0.151928833333333,20,0x2B,0x00,Read,ACK
0.151953166666667,20,0x2B,0x00,Read,ACK
0.151977500000000,20,0x2B,0x00,Read,ACK
0.152001833333333,20,0x2B,0x00,Read,ACK
0.152026083333333,20,0x2B,0x00,Read,ACK
0.152050416666667,20,0x2B,0x00,Read,ACK
0.152074750000000,20,0x2B,0x00,Read,ACK
0.152099166666667,20,0x2B,0x00,Read,ACK
0.152123416666667,20,0x2B,0x00,Read,ACK
0.152147750000000,20,0x2B,0x00,Read,ACK
0.152172083333333,20,0x2B,0x00,Read,ACK
0.152196416666667,20,0x2B,0x00,Read,ACK
0.152220750000000,20,0x2B,0x00,Read,ACK
0.152245083333333,20,0x2B,0x00,Read,ACK
0.152269333333333,20,0x2B,0x00,Read,ACK
0.152293666666667,20,0x2B,0x00,Read,ACK
0.152317916666667,20,0x2B,0x00,Read,ACK
0.152342250000000,20,0x2B,0x00,Read,ACK
0.152366583333333,20,0x2B,0x00,Read,NAK
0.159246833333333,21,0x2B,0x07,Read,ACK
