Time [s],Packet ID,Address,Data,Read/Write,ACK/NAK
0.000019500000000,0,0x2A,0x05,Write,ACK
0.000043083333333,0,0x2A,0x00,Write,ACK
0.000066750000000,0,0x2A,0x3D,Write,ACK
0.000090333333333,0,0x2A,0x03,Write,ACK
0.000113916666667,0,0x2A,0x06,Write,ACK
0.000137583333333,0,0x2A,0x00,Write,ACK
0.000161250000000,0,0x2A,0x07,Write,ACK
0.000184750000000,0,0x2A,0x00,Write,ACK
0.000208333333333,0,0x2A,0x0D,Write,ACK
0.000232000000000,0,0x2A,0x05,Write,ACK
0.000255666666667,0,0x2A,0x03,Write,ACK
0.000279416666667,0,0x2A,0x06,Write,ACK
0.000303083333333,0,0x2A,0x01,Write,ACK
0.052075500000000,1,0x2A,0x05,Write,ACK
0.052099083333333,1,0x2A,0x00,Write,ACK
0.052122750000000,1,0x2A,0x3D,Write,ACK
0.052146416666667,1,0x2A,0x02,Write,ACK
0.052170083333333,1,0x2A,0x06,Write,ACK
0.052193666666667,1,0x2A,0x00,Write,ACK
0.052271666666667,2,0x2B,0x07,Read,ACK
0.052295250000000,2,0x2B,0x00,Read,ACK
0.052318916666667,2,0x2B,0x0D,Read,ACK
0.052342500000000,2,0x2B,0x06,Read,ACK
0.052366166666667,2,0x2B,0x01,Read,ACK
0.052389833333333,2,0x2B,0xF0,Read,ACK
0.052413500000000,2,0x2B,0x0A,Read,NAK
0.112814750000000,3,0x2A,0x05,Write,ACK
0.112838416666667,3,0x2A,0x00,Write,ACK
0.112862083333333,3,0x2A,0x3D,Write,ACK
0.112885750000000,3,0x2A,0x03,Write,ACK
0.112909333333333,3,0x2A,0x06,Write,ACK
0.112933000000000,3,0x2A,0x00,Write,ACK
0.112956666666667,3,0x2A,0x07,Write,ACK
0.112980333333333,3,0x2A,0x00,Write,ACK
0.113004000000000,3,0x2A,0x0D,Write,ACK
0.113027666666667,3,0x2A,0x05,Write,ACK
0.113051250000000,3,0x2A,0x03,Write,ACK
0.113074833333333,3,0x2A,0x07,Write,ACK
0.113098500000000,3,0x2A,0x01,Write,ACK
0.164018416666667,4,0x2A,0x05,Write,ACK
0.164042083333333,4,0x2A,0x00,Write,ACK
0.164065750000000,4,0x2A,0x3D,Write,ACK
0.164089416666667,4,0x2A,0x02,Write,ACK
0.164113083333333,4,0x2A,0x06,Write,ACK
0.164136750000000,4,0x2A,0x00,Write,ACK
0.164217583333333,5,0x2B,0x07,Read,ACK
0.164241250000000,5,0x2B,0x00,Read,ACK
0.164264916666667,5,0x2B,0x0D,Read,ACK
0.164288500000000,5,0x2B,0x07,Read,ACK
0.164312166666667,5,0x2B,0x01,Read,ACK
0.164335833333333,5,0x2B,0xE7,Read,ACK
0.164359500000000,5,0x2B,0x06,Read,NAK
0.224894583333333,6,0x2A,0x05,Write,ACK
0.224918250000000,6,0x2A,0x00,Write,ACK
0.224941833333333,6,0x2A,0x3D,Write,ACK
0.224965500000000,6,0x2A,0x03,Write,ACK
0.224989083333333,6,0x2A,0x06,Write,ACK
0.225012750000000,6,0x2A,0x00,Write,ACK
0.225036416666667,6,0x2A,0x07,Write,ACK
0.225060083333333,6,0x2A,0x00,Write,ACK
0.225083750000000,6,0x2A,0x0D,Write,ACK
0.225107333333333,6,0x2A,0x00,Write,ACK
0.225131000000000,6,0x2A,0x03,Write,ACK
0.225154666666667,6,0x2A,0x01,Write,ACK
0.225178333333333,6,0x2A,0x00,Write,ACK
5.766236833333333,7,0x2A,0x05,Write,ACK
5.766260583333334,7,0x2A,0x00,Write,ACK
5.766284333333333,7,0x2A,0x3D,Write,ACK
5.766308000000000,7,0x2A,0x03,Write,ACK
5.766331666666667,7,0x2A,0x06,Write,ACK
5.766355333333333,7,0x2A,0x00,Write,ACK
5.766379000000000,7,0x2A,0x07,Write,ACK
5.766402583333333,7,0x2A,0x00,Write,ACK
5.766426333333333,7,0x2A,0x0D,Write,ACK
5.766450000000000,7,0x2A,0x05,Write,ACK
5.766473666666666,7,0x2A,0x03,Write,ACK
5.766497250000000,7,0x2A,0x06,Write,ACK
5.766520916666667,7,0x2A,0x01,Write,ACK
5.828711250000000,8,0x2A,0x05,Write,ACK
5.828734916666667,8,0x2A,0x00,Write,ACK
5.828758583333333,8,0x2A,0x3D,Write,ACK
5.828782250000000,8,0x2A,0x02,Write,ACK
5.828805833333333,8,0x2A,0x06,Write,ACK
5.828829416666666,8,0x2A,0x00,Write,ACK
5.829107250000000,9,0x2B,0x07,Read,ACK
5.829130833333333,9,0x2B,0x00,Read,ACK
5.829154500000000,9,0x2B,0x0D,Read,ACK
5.829178083333334,9,0x2B,0x06,Read,ACK
5.829201666666667,9,0x2B,0x01,Read,ACK
5.829225333333333,9,0x2B,0xF0,Read,ACK
5.829248916666667,9,0x2B,0x0A,Read,NAK
5.906827166666667,10,0x2A,0x05,Write,ACK
5.906850916666667,10,0x2A,0x00,Write,ACK
5.906874583333333,10,0x2A,0x3D,Write,ACK
5.906898333333333,10,0x2A,0x03,Write,ACK
5.906922000000000,10,0x2A,0x06,Write,ACK
5.906945666666667,10,0x2A,0x00,Write,ACK
5.906969333333334,10,0x2A,0x07,Write,ACK
5.906993000000000,10,0x2A,0x00,Write,ACK
5.907016666666666,10,0x2A,0x0D,Write,ACK
5.907040250000000,10,0x2A,0x05,Write,ACK
5.907063833333333,10,0x2A,0x03,Write,ACK
5.907087416666666,10,0x2A,0x07,Write,ACK
5.907111000000000,10,0x2A,0x01,Write,ACK
5.969356000000000,11,0x2A,0x05,Write,ACK
5.969379666666667,11,0x2A,0x00,Write,ACK
5.969403416666666,11,0x2A,0x3D,Write,ACK
5.969427000000000,11,0x2A,0x02,Write,ACK
5.969450666666667,11,0x2A,0x06,Write,ACK
5.969474333333333,11,0x2A,0x00,Write,ACK
5.969551750000000,12,0x2B,0x07,Read,ACK
5.969575333333333,12,0x2B,0x00,Read,ACK
5.969599000000000,12,0x2B,0x0D,Read,ACK
5.969622666666667,12,0x2B,0x07,Read,ACK
5.969646333333333,12,0x2B,0x01,Read,ACK
5.969670000000000,12,0x2B,0xE7,Read,ACK
5.969693583333333,12,0x2B,0x06,Read,NAK
6.031865000000000,13,0x2A,0x05,Write,ACK
6.031888916666666,13,0x2A,0x00,Write,ACK
6.031912833333333,13,0x2A,0x3D,Write,ACK
6.031936750000000,13,0x2A,0x03,Write,ACK
6.031960583333333,13,0x2A,0x06,Write,ACK
6.031984416666667,13,0x2A,0x00,Write,ACK
6.032008250000000,13,0x2A,0x07,Write,ACK
6.032032083333333,13,0x2A,0x00,Write,ACK
6.032055833333334,13,0x2A,0x0D,Write,ACK
6.032079666666666,13,0x2A,0x00,Write,ACK
6.032103416666667,13,0x2A,0x03,Write,ACK
6.032127166666666,13,0x2A,0x01,Write,ACK
6.032150916666667,13,0x2A,0x00,Write,ACK
