Time [s],Packet ID,Address,Data,Read/Write,ACK/NAK
0.000020333333333,0,0x2A,0x01,Write,ACK
0.000044666666667,0,0x2A,0x00,Write,ACK
0.000096916666667,1,0x2B,0x1E,Read,ACK
0.000121166666667,1,0x2B,0x00,Read,ACK
0.000145500000000,1,0x2B,0x00,Read,ACK
0.000169833333333,1,0x2B,0x01,Read,ACK
0.000194166666667,1,0x2B,0x85,Read,ACK
0.000218500000000,1,0x2B,0x00,Read,ACK
0.000242833333333,1,0x2B,0x02,Read,ACK
0.000267083333333,1,0x2B,0x00,Read,ACK
0.000291416666667,1,0x2B,0x03,Read,ACK
0.000315750000000,1,0x2B,0x00,Read,ACK
0.000340166666667,1,0x2B,0x1E,Read,ACK
0.000364500000000,1,0x2B,0x00,Read,ACK
0.000388833333333,1,0x2B,0x04,Read,ACK
0.000413166666667,1,0x2B,0x00,Read,ACK
0.000437416666667,1,0x2B,0x42,Read,ACK
0.000461666666667,1,0x2B,0x00,Read,ACK
0.000485916666667,1,0x2B,0x05,Read,ACK
0.000510250000000,1,0x2B,0x00,Read,ACK
0.000534666666667,1,0x2B,0x06,Read,ACK
0.000559083333333,1,0x2B,0x00,Read,ACK
0.000583416666667,1,0x2B,0x05,Read,ACK
0.000607750000000,1,0x2B,0x0B,Read,ACK
0.000632000000000,1,0x2B,0x01,Read,ACK
0.000656333333333,1,0x2B,0x01,Read,ACK
0.000680666666667,1,0x2B,0x07,Read,ACK
0.000705000000000,1,0x2B,0x00,Read,ACK
0.000729333333333,1,0x2B,0x00,Read,ACK
0.000753583333333,1,0x2B,0x00,Read,ACK
0.000777916666667,1,0x2B,0x00,Read,ACK
0.000802333333333,1,0x2B,0x00,Read,NAK
0.000952750000000,2,0x2A,0x05,Write,ACK
0.000977083333333,2,0x2A,0x00,Write,ACK
0.001001416666667,2,0x2A,0x00,Write,ACK
0.001025750000000,2,0x2A,0x08,Write,ACK
0.001104000000000,3,0x2A,0x05,Write,ACK
0.001128333333333,3,0x2A,0x00,Write,ACK
0.001152750000000,3,0x2A,0x00,Write,ACK
0.001177083333333,3,0x2A,0x01,Write,ACK
5.026001750000000,4,0x2A,0x05,Write,ACK
5.026026083333333,4,0x2A,0x00,Write,ACK
5.026050333333333,4,0x2A,0x01,Write,ACK
5.026074666666666,4,0x2A,0x08,Write,ACK
6.050218666666667,5,0x2A,0x05,Write,ACK
6.050243083333333,5,0x2A,0x00,Write,ACK
6.050267416666666,5,0x2A,0x00,Write,ACK
6.050291833333334,5,0x2A,0x08,Write,ACK
6.050562916666666,6,0x2A,0x05,Write,ACK
6.050587250000000,6,0x2A,0x00,Write,ACK
6.050611583333334,6,0x2A,0x00,Write,ACK
6.050635916666667,6,0x2A,0x01,Write,ACK
6.050927000000000,7,0x2B,0x00,Read,ACK
6.050951333333333,7,0x2B,0x00,Read,ACK
6.050975666666667,7,0x2B,0x00,Read,ACK
6.051000083333333,7,0x2B,0x00,Read,ACK
6.051024416666666,7,0x2B,0x00,Read,ACK
6.051048750000000,7,0x2B,0x00,Read,ACK
6.051073083333334,7,0x2B,0x00,Read,ACK
6.051097500000000,7,0x2B,0x00,Read,ACK
6.051121833333333,7,0x2B,0x00,Read,ACK
6.051146250000000,7,0x2B,0x00,Read,ACK
6.051170500000000,7,0x2B,0x00,Read,ACK
6.051194833333334,7,0x2B,0x00,Read,ACK
6.051219166666667,7,0x2B,0x00,Read,ACK
6.051243583333333,7,0x2B,0x00,Read,ACK
6.051267833333333,7,0x2B,0x00,Read,ACK
6.051292166666666,7,0x2B,0x00,Read,ACK
6.051316500000000,7,0x2B,0x00,Read,ACK
6.051340750000000,7,0x2B,0x00,Read,ACK
6.051365083333334,7,0x2B,0x00,Read,ACK
6.051389333333334,7,0x2B,0x00,Read,ACK
6.051413666666667,7,0x2B,0x00,Read,ACK
6.051438000000000,7,0x2B,0x00,Read,ACK
6.051462333333333,7,0x2B,0x00,Read,ACK
6.051486666666666,7,0x2B,0x00,Read,ACK
6.051511000000000,7,0x2B,0x00,Read,ACK
6.051535333333334,7,0x2B,0x00,Read,ACK
6.051559666666667,7,0x2B,0x00,Read,ACK
6.051584000000000,7,0x2B,0x00,Read,ACK
6.051608333333333,7,0x2B,0x00,Read,ACK
6.051632666666666,7,0x2B,0x00,Read,NAK
6.051771333333333,8,0x2A,0x02,Write,ACK
6.051795583333333,8,0x2A,0x00,Write,ACK
6.051847833333333,9,0x2B,0x05,Read,ACK
6.051872166666667,9,0x2B,0x01,Read,ACK
6.051896500000000,9,0x2B,0x09,Read,ACK
6.051920916666667,9,0x2B,0x02,Read,ACK
6.051945333333333,9,0x2B,0xA1,Read,ACK
6.051969750000000,9,0x2B,0x01,Read,ACK
6.051994166666667,9,0x2B,0x85,Read,ACK
6.052018500000000,9,0x2B,0x01,Read,ACK
6.052042916666666,9,0x2B,0x09,Read,ACK
6.052067166666666,9,0x2B,0x01,Read,ACK
6.052091500000000,9,0x2B,0xA1,Read,ACK
6.052115750000000,9,0x2B,0x00,Read,ACK
6.052140083333334,9,0x2B,0x05,Read,ACK
6.052164333333334,9,0x2B,0x09,Read,ACK
6.052188666666667,9,0x2B,0x19,Read,ACK
6.052212916666667,9,0x2B,0x01,Read,ACK
6.052237250000000,9,0x2B,0x29,Read,ACK
6.052261583333333,9,0x2B,0x02,Read,ACK
6.052285916666666,9,0x2B,0x15,Read,ACK
6.052310250000000,9,0x2B,0x00,Read,ACK
6.052334583333334,9,0x2B,0x25,Read,ACK
6.052358916666667,9,0x2B,0x01,Read,ACK
6.052383250000000,9,0x2B,0x75,Read,ACK
6.052407583333333,9,0x2B,0x01,Read,ACK
6.052431916666666,9,0x2B,0x95,Read,ACK
6.052456250000000,9,0x2B,0x02,Read,ACK
6.052480583333334,9,0x2B,0x81,Read,ACK
6.052504916666667,9,0x2B,0x02,Read,ACK
6.052529166666667,9,0x2B,0x95,Read,ACK
6.052553500000000,9,0x2B,0x06,Read,ACK
6.052577833333333,9,0x2B,0x81,Read,ACK
6.052602166666667,9,0x2B,0x03,Read,ACK
6.052626500000000,9,0x2B,0x05,Read,ACK
6.052650833333334,9,0x2B,0x01,Read,ACK
6.052675166666667,9,0x2B,0x09,Read,ACK
6.052699500000000,9,0x2B,0x30,Read,ACK
6.052723750000000,9,0x2B,0x09,Read,ACK
6.052748166666666,9,0x2B,0x31,Read,ACK
6.052772500000000,9,0x2B,0x09,Read,ACK
6.052796833333334,9,0x2B,0x38,Read,ACK
6.052821166666667,9,0x2B,0x15,Read,ACK
6.052845416666667,9,0x2B,0x81,Read,ACK
6.052869750000000,9,0x2B,0x25,Read,ACK
6.052894000000000,9,0x2B,0x7F,Read,ACK
6.052918333333333,9,0x2B,0x75,Read,ACK
6.052942583333333,9,0x2B,0x08,Read,ACK
6.052966916666667,9,0x2B,0x95,Read,ACK
6.052991166666667,9,0x2B,0x03,Read,ACK
6.053015416666667,9,0x2B,0x81,Read,ACK
6.053039750000000,9,0x2B,0x06,Read,ACK
6.053064083333333,9,0x2B,0xC0,Read,ACK
6.053088416666666,9,0x2B,0xC0,Read,ACK
6.053112666666666,9,0x2B,0x06,Read,ACK
6.053136916666666,9,0x2B,0x00,Read,ACK
6.053161250000000,9,0x2B,0xFF,Read,ACK
6.053185500000000,9,0x2B,0x09,Read,ACK
6.053209833333334,9,0x2B,0xC5,Read,ACK
6.053234166666667,9,0x2B,0xA1,Read,ACK
6.053258416666667,9,0x2B,0x01,Read,ACK
6.053282750000000,9,0x2B,0x85,Read,ACK
6.053307083333333,9,0x2B,0x0D,Read,ACK
6.053331416666667,9,0x2B,0x09,Read,ACK
6.053355666666667,9,0x2B,0xC5,Read,ACK
6.053380000000000,9,0x2B,0x15,Read,ACK
6.053404250000000,9,0x2B,0x00,Read,ACK
6.053428583333333,9,0x2B,0x26,Read,ACK
6.053452916666667,9,0x2B,0xFF,Read,ACK
6.053477166666666,9,0x2B,0x00,Read,ACK
6.053501416666666,9,0x2B,0x75,Read,ACK
6.053525666666666,9,0x2B,0x08,Read,ACK
6.053550000000000,9,0x2B,0x95,Read,ACK
6.053574333333334,9,0x2B,0x04,Read,ACK
6.053598583333334,9,0x2B,0xB1,Read,ACK
6.053622916666667,9,0x2B,0x02,Read,ACK
6.053647166666667,9,0x2B,0x85,Read,ACK
6.053671500000000,9,0x2B,0x0C,Read,ACK
6.053695833333333,9,0x2B,0x09,Read,ACK
6.053720083333333,9,0x2B,0xC6,Read,ACK
6.053744333333333,9,0x2B,0x96,Read,ACK
6.053768666666667,9,0x2B,0x76,Read,ACK
6.053793000000000,9,0x2B,0x02,Read,ACK
6.053817333333333,9,0x2B,0x75,Read,ACK
6.053841583333333,9,0x2B,0x08,Read,ACK
6.053865833333333,9,0x2B,0xB1,Read,ACK
6.053890166666666,9,0x2B,0x02,Read,ACK
6.053914416666666,9,0x2B,0x85,Read,ACK
6.053938750000000,9,0x2B,0x0B,Read,ACK
6.053963083333334,9,0x2B,0x09,Read,ACK
6.053987416666667,9,0x2B,0xC7,Read,ACK
6.054011833333333,9,0x2B,0x95,Read,ACK
6.054036083333333,9,0x2B,0x80,Read,ACK
6.054060416666666,9,0x2B,0x75,Read,ACK
6.054084750000000,9,0x2B,0x08,Read,ACK
6.054109083333334,9,0x2B,0xB1,Read,ACK
6.054133416666667,9,0x2B,0x02,Read,ACK
6.054157750000000,9,0x2B,0x85,Read,ACK
6.054182083333333,9,0x2B,0x5D,Read,ACK
6.054206333333333,9,0x2B,0x09,Read,ACK
6.054230666666666,9,0x2B,0x01,Read,ACK
6.054254916666666,9,0x2B,0x95,Read,ACK
6.054279250000000,9,0x2B,0x1B,Read,ACK
6.054303583333334,9,0x2B,0x75,Read,ACK
6.054327833333334,9,0x2B,0x08,Read,ACK
6.054352083333334,9,0x2B,0x81,Read,ACK
6.054376416666667,9,0x2B,0x06,Read,ACK
6.054400750000000,9,0x2B,0xC0,Read,ACK
6.054425000000000,9,0x2B,0x06,Read,ACK
6.054449333333333,9,0x2B,0x00,Read,ACK
6.054473583333333,9,0x2B,0xFF,Read,ACK
6.054497833333333,9,0x2B,0x09,Read,ACK
6.054522166666667,9,0x2B,0x01,Read,ACK
6.054546500000000,9,0x2B,0xA1,Read,ACK
6.054570833333333,9,0x2B,0x01,Read,ACK
6.054595166666667,9,0x2B,0x15,Read,ACK
6.054619500000000,9,0x2B,0x00,Read,ACK
6.054643833333333,9,0x2B,0x26,Read,ACK
6.054668083333334,9,0x2B,0xFF,Read,ACK
6.054692416666667,9,0x2B,0x00,Read,ACK
6.054716666666667,9,0x2B,0x75,Read,ACK
6.054740916666667,9,0x2B,0x08,Read,ACK
6.054765250000000,9,0x2B,0x85,Read,ACK
6.054789583333333,9,0x2B,0x06,Read,ACK
6.054813916666666,9,0x2B,0x95,Read,ACK
6.054838166666666,9,0x2B,0x3F,Read,ACK
6.054862500000000,9,0x2B,0x09,Read,ACK
6.054886750000000,9,0x2B,0x01,Read,ACK
6.054911083333334,9,0x2B,0x81,Read,ACK
6.054935416666667,9,0x2B,0x02,Read,ACK
6.054959833333333,9,0x2B,0x09,Read,ACK
6.054984166666666,9,0x2B,0x01,Read,ACK
6.055008500000000,9,0x2B,0x91,Read,ACK
6.055032750000000,9,0x2B,0x02,Read,ACK
6.055057083333334,9,0x2B,0xC0,Read,NAK
6.056856583333333,10,0x2A,0x05,Write,ACK
6.056880916666667,10,0x2A,0x00,Write,ACK
6.056905333333333,10,0x2A,0x01,Write,ACK
6.056929750000000,10,0x2A,0x08,Write,ACK
6.060655416666667,11,0x2A,0x05,Write,ACK
6.060679750000000,11,0x2A,0x00,Write,ACK
6.060704083333333,11,0x2A,0x00,Write,ACK
6.060728416666667,11,0x2A,0x08,Write,ACK
6.061007166666666,12,0x2A,0x05,Write,ACK
6.061031500000000,12,0x2A,0x00,Write,ACK
6.061055833333334,12,0x2A,0x3D,Write,ACK
6.061080083333334,12,0x2A,0x02,Write,ACK
6.061104500000000,12,0x2A,0x06,Write,ACK
6.061128750000000,12,0x2A,0x00,Write,ACK
6.061180916666666,13,0x2B,0x07,Read,ACK
6.061205250000000,13,0x2B,0x00,Read,ACK
6.061229666666667,13,0x2B,0x0D,Read,ACK
6.061254083333333,13,0x2B,0x00,Read,ACK
6.061278500000000,13,0x2B,0x01,Read,ACK
6.061302916666667,13,0x2B,0x07,Read,ACK
6.061327333333334,13,0x2B,0x07,Read,NAK
6.061415083333333,14,0x2A,0x05,Write,ACK
6.061439333333333,14,0x2A,0x00,Write,ACK
6.061463666666667,14,0x2A,0x3C,Write,ACK
6.061487916666667,14,0x2A,0x02,Write,ACK
6.061512166666667,14,0x2A,0x06,Write,ACK
6.061536500000000,14,0x2A,0x00,Write,ACK
6.061588750000000,15,0x2B,0x00,Read,ACK
6.061613000000000,15,0x2B,0x00,Read,ACK
6.061637333333334,15,0x2B,0x00,Read,ACK
6.061661750000000,15,0x2B,0x00,Read,ACK
6.061686166666667,15,0x2B,0x00,Read,ACK
6.061710500000000,15,0x2B,0x00,Read,ACK
6.061734916666667,15,0x2B,0x00,Read,ACK
6.061759250000000,15,0x2B,0x00,Read,ACK
6.061783583333333,15,0x2B,0x00,Read,ACK
6.061808000000000,15,0x2B,0x00,Read,ACK
6.061832333333333,15,0x2B,0x00,Read,ACK
6.061856583333333,15,0x2B,0x00,Read,ACK
6.061880916666667,15,0x2B,0x00,Read,ACK
6.061905333333334,15,0x2B,0x00,Read,ACK
6.061929666666667,15,0x2B,0x00,Read,ACK
6.061954000000000,15,0x2B,0x00,Read,ACK
6.061978333333333,15,0x2B,0x00,Read,ACK
6.062002666666666,15,0x2B,0x00,Read,ACK
6.062027000000000,15,0x2B,0x00,Read,ACK
6.062051250000000,15,0x2B,0x00,Read,ACK
6.062075583333334,15,0x2B,0x00,Read,ACK
6.062099833333333,15,0x2B,0x00,Read,ACK
6.062124166666667,15,0x2B,0x00,Read,ACK
6.062148500000000,15,0x2B,0x00,Read,ACK
6.062172916666666,15,0x2B,0x00,Read,ACK
6.062197250000000,15,0x2B,0x00,Read,ACK
6.062221583333334,15,0x2B,0x00,Read,ACK
6.062245916666667,15,0x2B,0x00,Read,ACK
6.062270166666667,15,0x2B,0x00,Read,ACK
6.062294416666667,15,0x2B,0x00,Read,ACK
6.062318750000000,15,0x2B,0x00,Read,ACK
6.062343083333333,15,0x2B,0x00,Read,ACK
6.062367416666667,15,0x2B,0x00,Read,ACK
6.062391666666667,15,0x2B,0x00,Read,ACK
6.062415916666667,15,0x2B,0x00,Read,ACK
6.062440250000000,15,0x2B,0x00,Read,ACK
6.062464583333333,15,0x2B,0x00,Read,ACK
6.062488833333333,15,0x2B,0x00,Read,ACK
6.062513166666666,15,0x2B,0x00,Read,ACK
6.062537416666666,15,0x2B,0x00,Read,ACK
6.062561750000000,15,0x2B,0x00,Read,ACK
6.062586083333334,15,0x2B,0x00,Read,ACK
6.062610416666667,15,0x2B,0x00,Read,ACK
6.062634666666667,15,0x2B,0x00,Read,ACK
6.062658916666667,15,0x2B,0x00,Read,ACK
6.062683250000000,15,0x2B,0x00,Read,ACK
6.062707583333333,15,0x2B,0x00,Read,ACK
6.062731916666666,15,0x2B,0x00,Read,ACK
6.062756166666667,15,0x2B,0x00,Read,ACK
6.062780500000000,15,0x2B,0x00,Read,ACK
6.062804833333334,15,0x2B,0x00,Read,ACK
6.062829166666667,15,0x2B,0x00,Read,ACK
6.062853500000000,15,0x2B,0x00,Read,ACK
6.062877750000000,15,0x2B,0x00,Read,ACK
6.062902000000000,15,0x2B,0x00,Read,ACK
6.062926333333333,15,0x2B,0x00,Read,ACK
6.062950583333333,15,0x2B,0x00,Read,ACK
6.062974916666667,15,0x2B,0x00,Read,ACK
6.062999166666667,15,0x2B,0x00,Read,ACK
6.063023416666667,15,0x2B,0x00,Read,ACK
6.063047750000000,15,0x2B,0x00,Read,ACK
6.063072083333333,15,0x2B,0x00,Read,ACK
6.063096416666666,15,0x2B,0x00,Read,ACK
6.063120666666666,15,0x2B,0x00,Read,ACK
6.063145000000000,15,0x2B,0x00,Read,ACK
6.063169250000000,15,0x2B,0x00,Read,ACK
6.063193583333334,15,0x2B,0x00,Read,ACK
6.063217833333334,15,0x2B,0x00,Read,ACK
6.063242166666667,15,0x2B,0x00,Read,ACK
6.063266500000000,15,0x2B,0x00,Read,ACK
6.063290750000000,15,0x2B,0x00,Read,ACK
6.063315083333333,15,0x2B,0x00,Read,ACK
6.063339416666667,15,0x2B,0x00,Read,ACK
6.063363666666667,15,0x2B,0x00,Read,ACK
6.063388000000000,15,0x2B,0x00,Read,ACK
6.063412250000000,15,0x2B,0x00,Read,ACK
6.063436583333333,15,0x2B,0x00,Read,ACK
6.063460916666667,15,0x2B,0x00,Read,ACK
6.063485166666666,15,0x2B,0x00,Read,ACK
6.063509500000000,15,0x2B,0x00,Read,ACK
6.063533750000000,15,0x2B,0x00,Read,ACK
6.063558083333334,15,0x2B,0x00,Read,ACK
6.063582416666667,15,0x2B,0x00,Read,ACK
6.063606666666667,15,0x2B,0x00,Read,ACK
6.063631000000000,15,0x2B,0x00,Read,ACK
6.063655250000000,15,0x2B,0x00,Read,ACK
6.063679583333333,15,0x2B,0x00,Read,ACK
6.063703916666666,15,0x2B,0x00,Read,ACK
6.063728250000000,15,0x2B,0x00,Read,ACK
6.063752583333334,15,0x2B,0x00,Read,ACK
6.063777000000000,15,0x2B,0x00,Read,ACK
6.063801333333333,15,0x2B,0x00,Read,ACK
6.063825583333333,15,0x2B,0x00,Read,ACK
6.063849916666666,15,0x2B,0x00,Read,ACK
6.063874250000000,15,0x2B,0x00,Read,ACK
6.063898666666667,15,0x2B,0x00,Read,ACK
6.063923000000000,15,0x2B,0x00,Read,ACK
6.063947250000000,15,0x2B,0x00,Read,ACK
6.063971583333333,15,0x2B,0x00,Read,ACK
6.063995916666666,15,0x2B,0x00,Read,ACK
6.064020166666666,15,0x2B,0x00,Read,ACK
6.064044500000000,15,0x2B,0x00,Read,ACK
6.064068833333334,15,0x2B,0x00,Read,ACK
6.064093083333334,15,0x2B,0x00,Read,ACK
6.064117416666667,15,0x2B,0x00,Read,ACK
6.064141750000000,15,0x2B,0x00,Read,ACK
6.064166166666666,15,0x2B,0x00,Read,ACK
6.064190416666666,15,0x2B,0x00,Read,ACK
6.064214750000000,15,0x2B,0x00,Read,ACK
6.064239000000000,15,0x2B,0x00,Read,ACK
6.064263333333333,15,0x2B,0x00,Read,ACK
6.064287666666667,15,0x2B,0x00,Read,ACK
6.064311916666667,15,0x2B,0x00,Read,ACK
6.064336250000000,15,0x2B,0x00,Read,ACK
6.064360500000000,15,0x2B,0x00,Read,ACK
6.064384833333333,15,0x2B,0x00,Read,ACK
6.064409083333334,15,0x2B,0x00,Read,ACK
6.064433416666667,15,0x2B,0x00,Read,ACK
6.064457750000000,15,0x2B,0x00,Read,ACK
6.064482000000000,15,0x2B,0x00,Read,ACK
6.064506333333333,15,0x2B,0x00,Read,ACK
6.064530583333333,15,0x2B,0x00,Read,ACK
6.064554916666666,15,0x2B,0x00,Read,ACK
6.064579250000000,15,0x2B,0x00,Read,ACK
6.064603666666667,15,0x2B,0x00,Read,ACK
6.064628000000000,15,0x2B,0x00,Read,ACK
6.064652333333333,15,0x2B,0x00,Read,ACK
6.064676666666666,15,0x2B,0x00,Read,ACK
6.064701000000000,15,0x2B,0x00,Read,ACK
6.064725333333334,15,0x2B,0x00,Read,ACK
6.064749666666667,15,0x2B,0x00,Read,ACK
6.064774000000000,15,0x2B,0x00,Read,ACK
6.064798250000000,15,0x2B,0x00,Read,ACK
6.064822583333333,15,0x2B,0x00,Read,ACK
6.064846916666666,15,0x2B,0x00,Read,ACK
6.064871333333334,15,0x2B,0x00,Read,ACK
6.064895666666667,15,0x2B,0x00,Read,ACK
6.064920000000000,15,0x2B,0x00,Read,ACK
6.064944250000000,15,0x2B,0x00,Read,ACK
6.064968583333333,15,0x2B,0x00,Read,ACK
6.064992833333333,15,0x2B,0x00,Read,ACK
6.065017166666666,15,0x2B,0x00,Read,ACK
6.065041416666666,15,0x2B,0x00,Read,ACK
6.065065833333334,15,0x2B,0x00,Read,ACK
6.065090166666667,15,0x2B,0x00,Read,ACK
6.065114500000000,15,0x2B,0x00,Read,ACK
6.065138833333333,15,0x2B,0x00,Read,ACK
6.065163083333333,15,0x2B,0x00,Read,ACK
6.065187416666666,15,0x2B,0x00,Read,ACK
6.065211833333334,15,0x2B,0x00,Read,ACK
6.065236166666667,15,0x2B,0x00,Read,ACK
6.065260500000000,15,0x2B,0x00,Read,ACK
6.065284833333333,15,0x2B,0x00,Read,ACK
6.065309166666666,15,0x2B,0x00,Read,ACK
6.065333500000000,15,0x2B,0x00,Read,ACK
6.065357916666667,15,0x2B,0x00,Read,ACK
6.065382250000000,15,0x2B,0x00,Read,ACK
6.065406500000000,15,0x2B,0x00,Read,ACK
6.065430833333333,15,0x2B,0x00,Read,ACK
6.065455166666666,15,0x2B,0x00,Read,ACK
6.065479583333333,15,0x2B,0x00,Read,ACK
6.065503916666667,15,0x2B,0x00,Read,ACK
6.065528250000000,15,0x2B,0x00,Read,ACK
6.065552583333333,15,0x2B,0x00,Read,ACK
6.065576833333333,15,0x2B,0x00,Read,ACK
6.065601250000000,15,0x2B,0x00,Read,ACK
6.065625666666667,15,0x2B,0x00,Read,ACK
6.065650000000000,15,0x2B,0x00,Read,ACK
6.065674333333333,15,0x2B,0x00,Read,ACK
6.065698583333333,15,0x2B,0x00,Read,ACK
6.065722833333333,15,0x2B,0x00,Read,ACK
6.065747166666666,15,0x2B,0x00,Read,ACK
6.065771500000000,15,0x2B,0x00,Read,ACK
6.065795833333333,15,0x2B,0x00,Read,ACK
6.065820166666667,15,0x2B,0x00,Read,ACK
6.065844583333333,15,0x2B,0x00,Read,ACK
6.065868833333333,15,0x2B,0x00,Read,ACK
6.065893166666666,15,0x2B,0x00,Read,ACK
6.065917500000000,15,0x2B,0x00,Read,ACK
6.065941833333333,15,0x2B,0x00,Read,ACK
6.065966250000000,15,0x2B,0x00,Read,ACK
6.065990500000000,15,0x2B,0x00,Read,ACK
6.066014833333333,15,0x2B,0x00,Read,ACK
6.066039250000000,15,0x2B,0x00,Read,ACK
6.066063583333333,15,0x2B,0x00,Read,ACK
6.066087916666667,15,0x2B,0x00,Read,ACK
6.066112250000000,15,0x2B,0x00,Read,ACK
6.066136500000000,15,0x2B,0x00,Read,ACK
6.066160833333333,15,0x2B,0x00,Read,ACK
6.066185250000000,15,0x2B,0x00,Read,ACK
6.066209583333333,15,0x2B,0x00,Read,ACK
6.066233916666667,15,0x2B,0x00,Read,ACK
6.066258250000000,15,0x2B,0x00,Read,ACK
6.066282500000000,15,0x2B,0x00,Read,ACK
6.066306916666667,15,0x2B,0x00,Read,ACK
6.066331333333333,15,0x2B,0x00,Read,ACK
6.066355666666666,15,0x2B,0x00,Read,ACK
6.066380000000000,15,0x2B,0x00,Read,ACK
6.066404333333334,15,0x2B,0x00,Read,ACK
6.066428666666667,15,0x2B,0x00,Read,ACK
6.066453000000000,15,0x2B,0x00,Read,ACK
6.066477333333333,15,0x2B,0x00,Read,ACK
6.066501583333333,15,0x2B,0x00,Read,ACK
6.066525916666667,15,0x2B,0x00,Read,ACK
6.066550250000000,15,0x2B,0x00,Read,ACK
6.066574583333334,15,0x2B,0x00,Read,ACK
6.066598916666667,15,0x2B,0x00,Read,ACK
6.066623250000000,15,0x2B,0x00,Read,ACK
6.066647583333333,15,0x2B,0x00,Read,ACK
6.066671916666666,15,0x2B,0x00,Read,ACK
6.066696250000000,15,0x2B,0x00,Read,ACK
6.066720583333334,15,0x2B,0x00,Read,ACK
6.066744833333333,15,0x2B,0x00,Read,ACK
6.066769166666667,15,0x2B,0x00,Read,ACK
6.066793500000000,15,0x2B,0x00,Read,ACK
6.066817916666666,15,0x2B,0x00,Read,ACK
6.066842166666667,15,0x2B,0x00,Read,ACK
6.066866500000000,15,0x2B,0x00,Read,ACK
6.066890833333333,15,0x2B,0x00,Read,ACK
6.066915166666667,15,0x2B,0x00,Read,ACK
6.066939583333333,15,0x2B,0x00,Read,ACK
6.066963833333333,15,0x2B,0x00,Read,ACK
6.066988166666667,15,0x2B,0x00,Read,ACK
6.067012500000000,15,0x2B,0x00,Read,ACK
6.067036833333334,15,0x2B,0x00,Read,ACK
6.067061250000000,15,0x2B,0x00,Read,ACK
6.067085583333333,15,0x2B,0x00,Read,ACK
6.067109916666666,15,0x2B,0x00,Read,ACK
6.067134250000000,15,0x2B,0x00,Read,ACK
6.067158583333334,15,0x2B,0x00,Read,ACK
6.067182916666667,15,0x2B,0x00,Read,ACK
6.067207250000000,15,0x2B,0x00,Read,ACK
6.067231500000000,15,0x2B,0x00,Read,ACK
6.067255833333333,15,0x2B,0x00,Read,ACK
6.067280166666666,15,0x2B,0x00,Read,ACK
6.067304416666667,15,0x2B,0x00,Read,ACK
6.067328750000000,15,0x2B,0x00,Read,ACK
6.067353000000000,15,0x2B,0x00,Read,ACK
6.067377333333333,15,0x2B,0x00,Read,ACK
6.067401750000000,15,0x2B,0x00,Read,ACK
6.067426083333333,15,0x2B,0x00,Read,ACK
6.067450416666667,15,0x2B,0x00,Read,ACK
6.067474750000000,15,0x2B,0x00,Read,ACK
6.067499000000000,15,0x2B,0x00,Read,ACK
6.067523416666667,15,0x2B,0x00,Read,ACK
6.067547750000000,15,0x2B,0x00,Read,ACK
6.067572083333333,15,0x2B,0x00,Read,ACK
6.067596333333333,15,0x2B,0x00,Read,ACK
6.067620666666667,15,0x2B,0x00,Read,ACK
6.067644916666667,15,0x2B,0x00,Read,ACK
6.067669250000000,15,0x2B,0x00,Read,ACK
6.067693500000000,15,0x2B,0x00,Read,ACK
6.067717833333333,15,0x2B,0x00,Read,ACK
6.067742166666667,15,0x2B,0x00,Read,ACK
6.067766500000000,15,0x2B,0x00,Read,ACK
6.067790916666667,15,0x2B,0x00,Read,ACK
6.067815250000000,15,0x2B,0x00,Read,ACK
6.067839583333333,15,0x2B,0x00,Read,ACK
6.067863916666667,15,0x2B,0x00,Read,ACK
6.067888166666667,15,0x2B,0x00,Read,ACK
6.067912416666666,15,0x2B,0x00,Read,ACK
6.067936750000000,15,0x2B,0x00,Read,ACK
6.067961083333334,15,0x2B,0x00,Read,ACK
6.067985333333334,15,0x2B,0x00,Read,ACK
6.068009666666667,15,0x2B,0x00,Read,ACK
6.068034000000000,15,0x2B,0x00,Read,ACK
6.068058250000000,15,0x2B,0x00,Read,ACK
6.068082583333333,15,0x2B,0x00,Read,ACK
6.068106916666666,15,0x2B,0x00,Read,ACK
6.068131166666666,15,0x2B,0x00,Read,ACK
6.068155500000000,15,0x2B,0x00,Read,ACK
6.068179750000000,15,0x2B,0x00,Read,ACK
6.068204083333334,15,0x2B,0x00,Read,ACK
6.068228416666667,15,0x2B,0x00,Read,ACK
6.068252666666667,15,0x2B,0x00,Read,ACK
6.068277000000000,15,0x2B,0x00,Read,ACK
6.068301250000000,15,0x2B,0x00,Read,ACK
6.068325583333333,15,0x2B,0x00,Read,ACK
6.068349916666667,15,0x2B,0x00,Read,ACK
6.068374250000000,15,0x2B,0x00,Read,ACK
6.068398666666667,15,0x2B,0x00,Read,ACK
6.068423000000000,15,0x2B,0x00,Read,ACK
6.068447333333333,15,0x2B,0x00,Read,ACK
6.068471666666666,15,0x2B,0x00,Read,ACK
6.068496000000000,15,0x2B,0x00,Read,ACK
6.068520416666667,15,0x2B,0x00,Read,ACK
6.068544750000000,15,0x2B,0x00,Read,ACK
6.068569083333333,15,0x2B,0x00,Read,ACK
6.068593416666666,15,0x2B,0x00,Read,ACK
6.068617750000000,15,0x2B,0x00,Read,ACK
6.068642000000000,15,0x2B,0x00,Read,ACK
6.068666333333334,15,0x2B,0x00,Read,ACK
6.068690583333334,15,0x2B,0x00,Read,ACK
6.068714916666667,15,0x2B,0x00,Read,ACK
6.068739250000000,15,0x2B,0x00,Read,ACK
6.068763583333333,15,0x2B,0x00,Read,ACK
6.068787916666667,15,0x2B,0x00,Read,ACK
6.068812250000000,15,0x2B,0x00,Read,ACK
6.068836500000000,15,0x2B,0x00,Read,ACK
6.068860750000000,15,0x2B,0x00,Read,ACK
6.068885083333333,15,0x2B,0x00,Read,ACK
6.068909333333333,15,0x2B,0x00,Read,ACK
6.068933666666666,15,0x2B,0x00,Read,ACK
6.068958000000000,15,0x2B,0x00,Read,ACK
6.068982333333333,15,0x2B,0x00,Read,ACK
6.069006750000000,15,0x2B,0x00,Read,ACK
6.069031083333333,15,0x2B,0x00,Read,ACK
6.069055416666667,15,0x2B,0x00,Read,ACK
6.069079666666667,15,0x2B,0x00,Read,ACK
6.069104000000000,15,0x2B,0x00,Read,ACK
6.069128250000000,15,0x2B,0x00,Read,ACK
6.069152583333334,15,0x2B,0x00,Read,ACK
6.069176916666667,15,0x2B,0x00,Read,ACK
6.069201250000000,15,0x2B,0x00,Read,ACK
6.069225583333333,15,0x2B,0x00,Read,ACK
6.069249833333333,15,0x2B,0x00,Read,ACK
6.069274083333333,15,0x2B,0x00,Read,ACK
6.069298333333333,15,0x2B,0x00,Read,ACK
6.069322583333333,15,0x2B,0x00,Read,ACK
6.069346916666666,15,0x2B,0x00,Read,ACK
6.069371166666667,15,0x2B,0x00,Read,ACK
6.069395500000000,15,0x2B,0x00,Read,ACK
6.069419833333333,15,0x2B,0x00,Read,ACK
6.069444166666667,15,0x2B,0x00,Read,ACK
6.069468416666667,15,0x2B,0x00,Read,ACK
6.069492750000000,15,0x2B,0x00,Read,ACK
6.069517000000000,15,0x2B,0x00,Read,ACK
6.069541333333333,15,0x2B,0x00,Read,ACK
6.069565666666667,15,0x2B,0x00,Read,ACK
6.069589916666667,15,0x2B,0x00,Read,ACK
6.069614250000000,15,0x2B,0x00,Read,ACK
6.069638500000000,15,0x2B,0x00,Read,ACK
6.069662833333333,15,0x2B,0x00,Read,ACK
6.069687083333333,15,0x2B,0x00,Read,ACK
6.069711416666666,15,0x2B,0x00,Read,ACK
6.069735750000000,15,0x2B,0x00,Read,ACK
6.069760000000000,15,0x2B,0x00,Read,ACK
6.069784333333334,15,0x2B,0x00,Read,ACK
6.069808666666667,15,0x2B,0x00,Read,ACK
6.069832916666667,15,0x2B,0x00,Read,ACK
6.069857250000000,15,0x2B,0x00,Read,ACK
6.069881500000000,15,0x2B,0x00,Read,ACK
6.069905833333333,15,0x2B,0x00,Read,ACK
6.069930166666667,15,0x2B,0x00,Read,ACK
6.069954500000000,15,0x2B,0x00,Read,ACK
6.069978833333334,15,0x2B,0x00,Read,ACK
6.070003083333333,15,0x2B,0x00,Read,ACK
6.070027333333333,15,0x2B,0x00,Read,ACK
6.070051583333333,15,0x2B,0x00,Read,ACK
6.070075833333333,15,0x2B,0x00,Read,ACK
6.070100166666666,15,0x2B,0x00,Read,ACK
6.070124416666666,15,0x2B,0x00,Read,ACK
6.070148750000000,15,0x2B,0x00,Read,ACK
6.070173083333334,15,0x2B,0x00,Read,ACK
6.070197416666667,15,0x2B,0x00,Read,ACK
6.070221666666667,15,0x2B,0x00,Read,ACK
6.070246000000000,15,0x2B,0x00,Read,ACK
6.070270333333333,15,0x2B,0x00,Read,ACK
6.070294583333333,15,0x2B,0x00,Read,ACK
6.070318916666666,15,0x2B,0x00,Read,ACK
6.070343166666667,15,0x2B,0x00,Read,ACK
6.070367500000000,15,0x2B,0x00,Read,ACK
6.070391833333334,15,0x2B,0x00,Read,ACK
6.070416083333333,15,0x2B,0x00,Read,ACK
6.070440416666667,15,0x2B,0x00,Read,ACK
6.070464666666667,15,0x2B,0x00,Read,ACK
6.070489000000000,15,0x2B,0x00,Read,ACK
6.070513333333333,15,0x2B,0x00,Read,ACK
6.070537583333333,15,0x2B,0x00,Read,ACK
6.070561916666667,15,0x2B,0x00,Read,ACK
6.070586166666667,15,0x2B,0x00,Read,ACK
6.070610500000000,15,0x2B,0x00,Read,ACK
6.070634750000000,15,0x2B,0x00,Read,ACK
6.070659083333333,15,0x2B,0x00,Read,ACK
6.070683500000000,15,0x2B,0x00,Read,ACK
6.070707833333334,15,0x2B,0x00,Read,ACK
6.070732250000000,15,0x2B,0x00,Read,ACK
6.070756583333333,15,0x2B,0x00,Read,ACK
6.070780916666667,15,0x2B,0x00,Read,ACK
6.070805166666666,15,0x2B,0x00,Read,ACK
6.070829500000000,15,0x2B,0x00,Read,ACK
6.070853833333334,15,0x2B,0x00,Read,ACK
6.070878166666667,15,0x2B,0x00,Read,ACK
6.070902500000000,15,0x2B,0x00,Read,ACK
