Time [s],Packet ID,Address,Data,Read/Write,ACK/NAK
0.000019583333333,0,0x2A,0x01,Write,ACK
0.000043166666667,0,0x2A,0x00,Write,ACK
0.000173250000000,1,0x2B,0x1E,Read,ACK
0.000196916666667,1,0x2B,0x00,Read,ACK
0.000220500000000,1,0x2B,0x00,Read,ACK
0.000244166666667,1,0x2B,0x01,Read,ACK
0.000267833333333,1,0x2B,0x85,Read,ACK
0.000291500000000,1,0x2B,0x00,Read,ACK
0.000315083333333,1,0x2B,0x02,Read,ACK
0.000338750000000,1,0x2B,0x00,Read,ACK
0.000362333333333,1,0x2B,0x03,Read,ACK
0.000385916666667,1,0x2B,0x00,Read,ACK
0.000409583333333,1,0x2B,0x1E,Read,ACK
0.000433166666667,1,0x2B,0x00,Read,ACK
0.000456833333333,1,0x2B,0x04,Read,ACK
0.000480500000000,1,0x2B,0x00,Read,ACK
0.000504083333333,1,0x2B,0x42,Read,ACK
0.000527750000000,1,0x2B,0x00,Read,ACK
0.000551416666667,1,0x2B,0x05,Read,ACK
0.000575000000000,1,0x2B,0x00,Read,ACK
0.000598666666667,1,0x2B,0x06,Read,ACK
0.000622333333333,1,0x2B,0x00,Read,ACK
0.000646000000000,1,0x2B,0x05,Read,ACK
0.000669583333333,1,0x2B,0x0B,Read,ACK
0.000693250000000,1,0x2B,0x01,Read,ACK
0.000716916666667,1,0x2B,0x01,Read,ACK
0.000740500000000,1,0x2B,0x07,Read,ACK
0.000764166666667,1,0x2B,0x00,Read,ACK
0.000787833333333,1,0x2B,0x00,Read,ACK
0.000811416666667,1,0x2B,0x00,Read,ACK
0.000835083333333,1,0x2B,0x00,Read,ACK
0.000858750000000,1,0x2B,0x00,Read,NAK
0.001273166666667,2,0x2A,0x05,Write,ACK
0.001296833333333,2,0x2A,0x00,Write,ACK
0.001320500000000,2,0x2A,0x00,Write,ACK
0.001344166666667,2,0x2A,0x08,Write,ACK
0.002265583333333,3,0x2A,0x05,Write,ACK
0.002289250000000,3,0x2A,0x00,Write,ACK
0.002312916666667,3,0x2A,0x00,Write,ACK
0.002336583333333,3,0x2A,0x01,Write,ACK
0.002578000000000,4,0x2B,0x00,Read,ACK
0.002601666666667,4,0x2B,0x00,Read,ACK
0.002625333333333,4,0x2B,0x00,Read,ACK
0.002649000000000,4,0x2B,0x00,Read,ACK
0.002672666666667,4,0x2B,0x00,Read,ACK
0.002696333333333,4,0x2B,0x00,Read,ACK
0.002720000000000,4,0x2B,0x00,Read,ACK
0.002743583333333,4,0x2B,0x00,Read,ACK
0.002767250000000,4,0x2B,0x00,Read,ACK
0.002790916666667,4,0x2B,0x00,Read,ACK
0.002814583333333,4,0x2B,0x00,Read,ACK
0.002838250000000,4,0x2B,0x00,Read,ACK
0.002861916666667,4,0x2B,0x00,Read,ACK
0.002885500000000,4,0x2B,0x00,Read,ACK
0.002909166666667,4,0x2B,0x00,Read,ACK
0.002932833333333,4,0x2B,0x00,Read,ACK
0.002956583333333,4,0x2B,0x00,Read,ACK
0.002980250000000,4,0x2B,0x00,Read,ACK
0.003003833333333,4,0x2B,0x00,Read,ACK
0.003027500000000,4,0x2B,0x00,Read,ACK
0.003051166666667,4,0x2B,0x00,Read,ACK
0.003074833333333,4,0x2B,0x00,Read,ACK
0.003098500000000,4,0x2B,0x00,Read,ACK
0.003122166666667,4,0x2B,0x00,Read,ACK
0.003145833333333,4,0x2B,0x00,Read,ACK
0.003169500000000,4,0x2B,0x00,Read,ACK
0.003193166666667,4,0x2B,0x00,Read,ACK
0.003216833333333,4,0x2B,0x00,Read,ACK
0.003240416666667,4,0x2B,0x00,Read,ACK
0.003264083333333,4,0x2B,0x00,Read,NAK
0.003663250000000,5,0x2A,0x02,Write,ACK
0.003686916666667,5,0x2A,0x00,Write,ACK
0.003840250000000,6,0x2B,0x05,Read,ACK
0.003863833333333,6,0x2B,0x01,Read,ACK
0.003887500000000,6,0x2B,0x09,Read,ACK
0.003911083333333,6,0x2B,0x02,Read,ACK
0.003934666666667,6,0x2B,0xA1,Read,ACK
0.003958333333333,6,0x2B,0x01,Read,ACK
0.003982000000000,6,0x2B,0x85,Read,ACK
0.004005583333333,6,0x2B,0x01,Read,ACK
0.004029166666667,6,0x2B,0x09,Read,ACK
0.004052833333333,6,0x2B,0x01,Read,ACK
0.004076416666667,6,0x2B,0xA1,Read,ACK
0.004100083333333,6,0x2B,0x00,Read,ACK
0.004123750000000,6,0x2B,0x05,Read,ACK
0.004147416666667,6,0x2B,0x09,Read,ACK
0.004171083333333,6,0x2B,0x19,Read,ACK
0.004194750000000,6,0x2B,0x01,Read,ACK
0.004218333333333,6,0x2B,0x29,Read,ACK
0.004242000000000,6,0x2B,0x02,Read,ACK
0.004265666666667,6,0x2B,0x15,Read,ACK
0.004289333333333,6,0x2B,0x00,Read,ACK
0.004312916666667,6,0x2B,0x25,Read,ACK
0.004336583333333,6,0x2B,0x01,Read,ACK
0.004360250000000,6,0x2B,0x75,Read,ACK
0.004383916666667,6,0x2B,0x01,Read,ACK
0.004407583333333,6,0x2B,0x95,Read,ACK
0.004431250000000,6,0x2B,0x02,Read,ACK
0.004454833333333,6,0x2B,0x81,Read,ACK
0.004478500000000,6,0x2B,0x02,Read,ACK
0.004502166666667,6,0x2B,0x95,Read,ACK
0.004525833333333,6,0x2B,0x06,Read,ACK
0.004549500000000,6,0x2B,0x81,Read,ACK
0.004573083333333,6,0x2B,0x03,Read,ACK
0.004596750000000,6,0x2B,0x05,Read,ACK
0.004620416666667,6,0x2B,0x01,Read,ACK
0.004644083333333,6,0x2B,0x09,Read,ACK
0.004667750000000,6,0x2B,0x30,Read,ACK
0.004691333333333,6,0x2B,0x09,Read,ACK
0.004715000000000,6,0x2B,0x31,Read,ACK
0.004738583333333,6,0x2B,0x09,Read,ACK
0.004762166666667,6,0x2B,0x38,Read,ACK
0.004785750000000,6,0x2B,0x15,Read,ACK
0.004809416666667,6,0x2B,0x81,Read,ACK
0.004833000000000,6,0x2B,0x25,Read,ACK
0.004856666666667,6,0x2B,0x7F,Read,ACK
0.004880333333333,6,0x2B,0x75,Read,ACK
0.004904000000000,6,0x2B,0x08,Read,ACK
0.004927666666667,6,0x2B,0x95,Read,ACK
0.004951250000000,6,0x2B,0x03,Read,ACK
0.004974916666667,6,0x2B,0x81,Read,ACK
0.004998583333333,6,0x2B,0x06,Read,ACK
0.005022250000000,6,0x2B,0xC0,Read,ACK
0.005045833333333,6,0x2B,0xC0,Read,ACK
0.005069500000000,6,0x2B,0x06,Read,ACK
0.005093166666667,6,0x2B,0x00,Read,ACK
0.005116833333333,6,0x2B,0xFF,Read,ACK
0.005140500000000,6,0x2B,0x09,Read,ACK
0.005164166666667,6,0x2B,0xC5,Read,ACK
0.005187750000000,6,0x2B,0xA1,Read,ACK
0.005211416666667,6,0x2B,0x01,Read,ACK
0.005235000000000,6,0x2B,0x85,Read,ACK
0.005258666666667,6,0x2B,0x0D,Read,ACK
0.005282250000000,6,0x2B,0x09,Read,ACK
0.005305916666667,6,0x2B,0xC5,Read,ACK
0.005329500000000,6,0x2B,0x15,Read,ACK
0.005353166666667,6,0x2B,0x00,Read,ACK
0.005376833333333,6,0x2B,0x26,Read,ACK
0.005400500000000,6,0x2B,0xFF,Read,ACK
0.005424166666667,6,0x2B,0x00,Read,ACK
0.005447750000000,6,0x2B,0x75,Read,ACK
0.005471416666667,6,0x2B,0x08,Read,ACK
0.005495000000000,6,0x2B,0x95,Read,ACK
0.005518583333333,6,0x2B,0x04,Read,ACK
0.005542250000000,6,0x2B,0xB1,Read,ACK
0.005565916666667,6,0x2B,0x02,Read,ACK
0.005589500000000,6,0x2B,0x85,Read,ACK
0.005613083333333,6,0x2B,0x0C,Read,ACK
0.005636666666667,6,0x2B,0x09,Read,ACK
0.005660333333333,6,0x2B,0xC6,Read,ACK
0.005684000000000,6,0x2B,0x96,Read,ACK
0.005707666666667,6,0x2B,0x76,Read,ACK
0.005731250000000,6,0x2B,0x02,Read,ACK
0.005754916666667,6,0x2B,0x75,Read,ACK
0.005778583333333,6,0x2B,0x08,Read,ACK
0.005802250000000,6,0x2B,0xB1,Read,ACK
0.005825833333333,6,0x2B,0x02,Read,ACK
0.005849500000000,6,0x2B,0x85,Read,ACK
0.005873166666667,6,0x2B,0x0B,Read,ACK
0.005896833333333,6,0x2B,0x09,Read,ACK
0.005920416666667,6,0x2B,0xC7,Read,ACK
0.005944083333333,6,0x2B,0x95,Read,ACK
0.005967666666667,6,0x2B,0x80,Read,ACK
0.005991333333333,6,0x2B,0x75,Read,ACK
0.006015000000000,6,0x2B,0x08,Read,ACK
0.006038666666667,6,0x2B,0xB1,Read,ACK
0.006062250000000,6,0x2B,0x02,Read,ACK
0.006085916666667,6,0x2B,0x85,Read,ACK
0.006109583333333,6,0x2B,0x5D,Read,ACK
0.006133250000000,6,0x2B,0x09,Read,ACK
0.006156916666667,6,0x2B,0x01,Read,ACK
0.006180583333333,6,0x2B,0x95,Read,ACK
0.006204250000000,6,0x2B,0x1B,Read,ACK
0.006227916666667,6,0x2B,0x75,Read,ACK
0.006251583333333,6,0x2B,0x08,Read,ACK
0.006275166666667,6,0x2B,0x81,Read,ACK
0.006298833333333,6,0x2B,0x06,Read,ACK
0.006322416666667,6,0x2B,0xC0,Read,ACK
0.006346000000000,6,0x2B,0x06,Read,ACK
0.006369666666667,6,0x2B,0x00,Read,ACK
0.006393250000000,6,0x2B,0xFF,Read,ACK
0.006416916666667,6,0x2B,0x09,Read,ACK
0.006440500000000,6,0x2B,0x01,Read,ACK
0.006464250000000,6,0x2B,0xA1,Read,ACK
0.006487916666667,6,0x2B,0x01,Read,ACK
0.006511500000000,6,0x2B,0x15,Read,ACK
0.006535166666667,6,0x2B,0x00,Read,ACK
0.006558833333333,6,0x2B,0x26,Read,ACK
0.006582500000000,6,0x2B,0xFF,Read,ACK
0.006606083333333,6,0x2B,0x00,Read,ACK
0.006629750000000,6,0x2B,0x75,Read,ACK
0.006653416666667,6,0x2B,0x08,Read,ACK
0.006677083333333,6,0x2B,0x85,Read,ACK
0.006700750000000,6,0x2B,0x06,Read,ACK
0.006724333333333,6,0x2B,0x95,Read,ACK
0.006748000000000,6,0x2B,0x3F,Read,ACK
0.006771666666667,6,0x2B,0x09,Read,ACK
0.006795250000000,6,0x2B,0x01,Read,ACK
0.006818916666667,6,0x2B,0x81,Read,ACK
0.006842583333333,6,0x2B,0x02,Read,ACK
0.006866250000000,6,0x2B,0x09,Read,ACK
0.006889916666667,6,0x2B,0x01,Read,ACK
0.006913500000000,6,0x2B,0x91,Read,ACK
0.006937166666667,6,0x2B,0x02,Read,ACK
0.006960833333333,6,0x2B,0xC0,Read,NAK
0.077315500000000,7,0x2A,0x05,Write,ACK
0.077338916666667,7,0x2A,0x00,Write,ACK
0.077362416666667,7,0x2A,0x3D,Write,ACK
0.077385916666667,7,0x2A,0x03,Write,ACK
0.077409416666667,7,0x2A,0x06,Write,ACK
0.077433000000000,7,0x2A,0x00,Write,ACK
0.077456583333333,7,0x2A,0x07,Write,ACK
0.077480083333333,7,0x2A,0x00,Write,ACK
0.077503666666667,7,0x2A,0x0D,Write,ACK
0.077527250000000,7,0x2A,0x05,Write,ACK
0.077550916666667,7,0x2A,0x03,Write,ACK
0.077574500000000,7,0x2A,0x03,Write,ACK
0.077598166666667,7,0x2A,0x44,Write,ACK
0.114540750000000,,0xFF,,Read,NAK
0.114720083333333,8,0xFF,0xFF,Read,NAK
0.114844750000000,8,0xFF,0xFF,Read,NAK
0.114886333333333,8,0xFF,0xFF,Read,NAK
0.115022916666667,8,0xFF,0xFF,Read,NAK
0.115223916666667,8,0xFF,0xFF,Read,NAK
0.115942333333333,8,0xFF,0xFF,Read,NAK
0.116034000000000,8,0xFF,0xFF,Read,NAK
0.116163083333333,8,0xFF,0xFF,Read,NAK
0.116284000000000,8,0xFF,0xFF,Read,NAK
0.116338583333333,8,0xFF,0xFF,Read,NAK
0.116483666666667,8,0xFF,0xFF,Read,NAK
0.116710916666667,8,0xFF,0xFF,Read,NAK
0.139230083333333,9,0x2A,0x05,Write,ACK
0.139253750000000,9,0x2A,0x00,Write,ACK
0.139277416666667,9,0x2A,0x3D,Write,ACK
0.139301083333333,9,0x2A,0x02,Write,ACK
0.139324750000000,9,0x2A,0x06,Write,ACK
0.139348416666667,9,0x2A,0x00,Write,ACK
0.139442666666667,10,0x2B,0x07,Read,ACK
0.139466333333333,10,0x2B,0x00,Read,ACK
0.139489916666667,10,0x2B,0x0D,Read,ACK
0.139513583333333,10,0x2B,0x44,Read,ACK
0.139537166666667,10,0x2B,0x03,Read,ACK
0.139560833333333,10,0x2B,0x00,Read,ACK
0.139584416666667,10,0x2B,0x00,Read,NAK
0.192925083333333,11,0x2A,0x05,Write,ACK
0.192948666666667,11,0x2A,0x00,Write,ACK
0.192972333333333,11,0x2A,0x3D,Write,ACK
0.192996000000000,11,0x2A,0x03,Write,ACK
0.193019583333333,11,0x2A,0x06,Write,ACK
0.193043166666667,11,0x2A,0x00,Write,ACK
0.193066750000000,11,0x2A,0x07,Write,ACK
0.193090416666667,11,0x2A,0x00,Write,ACK
0.193114000000000,11,0x2A,0x0D,Write,ACK
0.193137666666667,11,0x2A,0x00,Write,ACK
0.193161333333333,11,0x2A,0x03,Write,ACK
0.193185000000000,11,0x2A,0x01,Write,ACK
0.193208583333333,11,0x2A,0x00,Write,ACK
0.255259500000000,12,0x2A,0x05,Write,ACK
0.255283333333333,12,0x2A,0x00,Write,ACK
0.255307083333333,12,0x2A,0x3D,Write,ACK
0.255330916666667,12,0x2A,0x03,Write,ACK
0.255354583333333,12,0x2A,0x06,Write,ACK
0.255378333333333,12,0x2A,0x00,Write,ACK
0.255402083333333,12,0x2A,0x07,Write,ACK
0.255425833333333,12,0x2A,0x00,Write,ACK
0.255449500000000,12,0x2A,0x0D,Write,ACK
0.255473166666667,12,0x2A,0x05,Write,ACK
0.255496916666667,12,0x2A,0x03,Write,ACK
0.255520500000000,12,0x2A,0x06,Write,ACK
0.255544166666667,12,0x2A,0x01,Write,ACK
0.317787583333333,13,0x2A,0x05,Write,ACK
0.317811250000000,13,0x2A,0x00,Write,ACK
0.317834916666667,13,0x2A,0x3D,Write,ACK
0.317858583333333,13,0x2A,0x02,Write,ACK
0.317882166666667,13,0x2A,0x06,Write,ACK
0.317905833333333,13,0x2A,0x00,Write,ACK
0.318025583333333,14,0x2B,0x07,Read,ACK
0.318049166666667,14,0x2B,0x00,Read,ACK
0.318072750000000,14,0x2B,0x0D,Read,ACK
0.318096416666667,14,0x2B,0x06,Read,ACK
0.318120000000000,14,0x2B,0x01,Read,ACK
0.318143666666667,14,0x2B,0xF0,Read,ACK
0.318167250000000,14,0x2B,0x0A,Read,NAK
0.380545833333333,15,0x2A,0x05,Write,ACK
0.380569416666667,15,0x2A,0x00,Write,ACK
0.380593000000000,15,0x2A,0x3D,Write,ACK
0.380616666666667,15,0x2A,0x03,Write,ACK
0.380640250000000,15,0x2A,0x06,Write,ACK
0.380664000000000,15,0x2A,0x00,Write,ACK
0.380687666666667,15,0x2A,0x07,Write,ACK
0.380711250000000,15,0x2A,0x00,Write,ACK
0.380734916666667,15,0x2A,0x0D,Write,ACK
0.380758583333333,15,0x2A,0x05,Write,ACK
0.380782250000000,15,0x2A,0x03,Write,ACK
0.380805833333333,15,0x2A,0x07,Write,ACK
0.380829500000000,15,0x2A,0x01,Write,ACK
0.431714500000000,16,0x2A,0x05,Write,ACK
0.431738000000000,16,0x2A,0x00,Write,ACK
0.431761583333333,16,0x2A,0x3D,Write,ACK
0.431785333333333,16,0x2A,0x02,Write,ACK
0.431808916666667,16,0x2A,0x06,Write,ACK
0.431832583333333,16,0x2A,0x00,Write,ACK
0.432304833333333,17,0x2B,0x07,Read,ACK
0.432328583333333,17,0x2B,0x00,Read,ACK
0.432352166666667,17,0x2B,0x0D,Read,ACK
0.432375833333333,17,0x2B,0x07,Read,ACK
0.432399416666667,17,0x2B,0x01,Read,ACK
0.432423000000000,17,0x2B,0xE7,Read,ACK
0.432446583333333,17,0x2B,0x06,Read,NAK
0.494419083333333,18,0x2A,0x05,Write,ACK
0.494442750000000,18,0x2A,0x00,Write,ACK
0.494466333333333,18,0x2A,0x3D,Write,ACK
0.494490000000000,18,0x2A,0x03,Write,ACK
0.494513583333333,18,0x2A,0x06,Write,ACK
0.494537250000000,18,0x2A,0x00,Write,ACK
0.494560916666667,18,0x2A,0x07,Write,ACK
0.494584500000000,18,0x2A,0x00,Write,ACK
0.494608166666667,18,0x2A,0x0D,Write,ACK
0.494631833333333,18,0x2A,0x05,Write,ACK
0.494655416666667,18,0x2A,0x03,Write,ACK
0.494679083333333,18,0x2A,0x0A,Write,ACK
0.494702750000000,18,0x2A,0x01,Write,ACK
0.545550916666667,19,0x2A,0x05,Write,ACK
0.545574666666667,19,0x2A,0x00,Write,ACK
0.545598333333333,19,0x2A,0x3D,Write,ACK
0.545622000000000,19,0x2A,0x02,Write,ACK
0.545645583333333,19,0x2A,0x06,Write,ACK
0.545669250000000,19,0x2A,0x00,Write,ACK
0.546122083333333,20,0x2B,0x07,Read,ACK
0.546145750000000,20,0x2B,0x00,Read,ACK
0.546169416666667,20,0x2B,0x0D,Read,ACK
0.546193083333333,20,0x2B,0x0A,Read,ACK
0.546216666666667,20,0x2B,0x01,Read,ACK
0.546240333333333,20,0x2B,0xF8,Read,ACK
0.546263916666667,20,0x2B,0x03,Read,NAK
0.608008000000000,21,0x2A,0x05,Write,ACK
0.608031583333333,21,0x2A,0x00,Write,ACK
0.608055250000000,21,0x2A,0x3D,Write,ACK
0.608078916666667,21,0x2A,0x03,Write,ACK
0.608102666666667,21,0x2A,0x06,Write,ACK
0.608126250000000,21,0x2A,0x00,Write,ACK
0.608149916666667,21,0x2A,0x07,Write,ACK
0.608173583333333,21,0x2A,0x00,Write,ACK
0.608197166666667,21,0x2A,0x0D,Write,ACK
0.608220750000000,21,0x2A,0x05,Write,ACK
0.608244416666667,21,0x2A,0x03,Write,ACK
0.608268083333333,21,0x2A,0x0B,Write,ACK
0.608291666666667,21,0x2A,0x01,Write,ACK
0.670602833333333,22,0x2A,0x05,Write,ACK
0.670626500000000,22,0x2A,0x00,Write,ACK
0.670650166666667,22,0x2A,0x3D,Write,ACK
0.670673833333333,22,0x2A,0x02,Write,ACK
0.670697500000000,22,0x2A,0x06,Write,ACK
0.670721166666667,22,0x2A,0x00,Write,ACK
0.670793833333333,23,0x2B,0x07,Read,ACK
0.670817416666667,23,0x2B,0x00,Read,ACK
0.670841083333333,23,0x2B,0x0D,Read,ACK
0.670864666666667,23,0x2B,0x0B,Read,ACK
0.670888333333333,23,0x2B,0x01,Read,ACK
0.670912000000000,23,0x2B,0xBD,Read,ACK
0.670935666666667,23,0x2B,0x02,Read,NAK
0.733175166666667,24,0x2A,0x05,Write,ACK
0.733198833333333,24,0x2A,0x00,Write,ACK
0.733222416666667,24,0x2A,0x3D,Write,ACK
0.733245916666667,24,0x2A,0x03,Write,ACK
0.733269500000000,24,0x2A,0x06,Write,ACK
0.733293083333333,24,0x2A,0x00,Write,ACK
0.733316750000000,24,0x2A,0x07,Write,ACK
0.733340333333333,24,0x2A,0x00,Write,ACK
0.733364000000000,24,0x2A,0x0D,Write,ACK
0.733387583333333,24,0x2A,0x05,Write,ACK
0.733411166666667,24,0x2A,0x03,Write,ACK
0.733434750000000,24,0x2A,0x00,Write,ACK
0.733458333333333,24,0x2A,0x01,Write,ACK
0.795661833333333,25,0x2A,0x05,Write,ACK
0.795685416666667,25,0x2A,0x00,Write,ACK
0.795709000000000,25,0x2A,0x3D,Write,ACK
0.795732583333333,25,0x2A,0x02,Write,ACK
0.795756250000000,25,0x2A,0x06,Write,ACK
0.795779916666667,25,0x2A,0x00,Write,ACK
0.795862916666667,26,0x2B,0x07,Read,ACK
0.795886583333333,26,0x2B,0x00,Read,ACK
0.795910166666667,26,0x2B,0x0D,Read,ACK
0.795933666666667,26,0x2B,0x00,Read,ACK
0.795957333333333,26,0x2B,0x01,Read,ACK
0.795980916666667,26,0x2B,0x07,Read,ACK
0.796004500000000,26,0x2B,0x07,Read,NAK
0.858095333333333,27,0x2A,0x05,Write,ACK
0.858119000000000,27,0x2A,0x00,Write,ACK
0.858142666666667,27,0x2A,0x3D,Write,ACK
0.858166250000000,27,0x2A,0x03,Write,ACK
0.858189916666667,27,0x2A,0x06,Write,ACK
0.858213583333333,27,0x2A,0x00,Write,ACK
0.858237166666667,27,0x2A,0x07,Write,ACK
0.858260750000000,27,0x2A,0x00,Write,ACK
0.858284416666667,27,0x2A,0x0D,Write,ACK
0.858308000000000,27,0x2A,0x05,Write,ACK
0.858331583333333,27,0x2A,0x03,Write,ACK
0.858355250000000,27,0x2A,0x03,Write,ACK
0.858378916666667,27,0x2A,0x01,Write,ACK
0.908619416666667,28,0x2A,0x05,Write,ACK
0.908643083333333,28,0x2A,0x00,Write,ACK
0.908666750000000,28,0x2A,0x3D,Write,ACK
0.908690416666667,28,0x2A,0x02,Write,ACK
0.908714083333333,28,0x2A,0x06,Write,ACK
0.908737666666667,28,0x2A,0x00,Write,ACK
0.908845083333333,29,0x2B,0x07,Read,ACK
0.908868750000000,29,0x2B,0x00,Read,ACK
0.908892333333333,29,0x2B,0x0D,Read,ACK
0.908916000000000,29,0x2B,0x03,Read,ACK
0.908939666666667,29,0x2B,0x01,Read,ACK
0.908963333333333,29,0x2B,0x07,Read,ACK
0.908986916666667,29,0x2B,0x07,Read,NAK
7.656411500000000,30,0x2A,0x05,Write,ACK
7.656435166666666,30,0x2A,0x00,Write,ACK
7.656458833333334,30,0x2A,0x3D,Write,ACK
7.656482416666667,30,0x2A,0x03,Write,ACK
7.656506083333333,30,0x2A,0x06,Write,ACK
7.656529666666667,30,0x2A,0x00,Write,ACK
7.656553333333333,30,0x2A,0x07,Write,ACK
7.656577000000000,30,0x2A,0x00,Write,ACK
7.656600583333334,30,0x2A,0x0D,Write,ACK
7.656624250000000,30,0x2A,0x05,Write,ACK
7.656647833333333,30,0x2A,0x03,Write,ACK
7.656671500000000,30,0x2A,0x06,Write,ACK
7.656695166666666,30,0x2A,0x01,Write,ACK
7.720310416666667,31,0x2A,0x05,Write,ACK
7.720334083333333,31,0x2A,0x00,Write,ACK
7.720357750000000,31,0x2A,0x3D,Write,ACK
7.720381416666667,31,0x2A,0x02,Write,ACK
7.720405000000000,31,0x2A,0x06,Write,ACK
7.720428666666667,31,0x2A,0x00,Write,ACK
7.720517333333333,32,0x2B,0x07,Read,ACK
7.720540916666667,32,0x2B,0x00,Read,ACK
7.720564583333333,32,0x2B,0x0D,Read,ACK
7.720588166666666,32,0x2B,0x06,Read,ACK
7.720611750000000,32,0x2B,0x01,Read,ACK
7.720635333333333,32,0x2B,0xF0,Read,ACK
7.720658916666666,32,0x2B,0x0A,Read,NAK
7.787553833333333,33,0x2A,0x05,Write,ACK
7.787577500000000,33,0x2A,0x00,Write,ACK
7.787601083333334,33,0x2A,0x3D,Write,ACK
7.787624666666667,33,0x2A,0x03,Write,ACK
7.787648333333333,33,0x2A,0x06,Write,ACK
7.787671916666667,33,0x2A,0x00,Write,ACK
7.787695583333333,33,0x2A,0x07,Write,ACK
7.787719250000000,33,0x2A,0x00,Write,ACK
7.787742916666667,33,0x2A,0x0D,Write,ACK
7.787766500000000,33,0x2A,0x05,Write,ACK
7.787790166666666,33,0x2A,0x03,Write,ACK
7.787813833333334,33,0x2A,0x07,Write,ACK
7.787837416666667,33,0x2A,0x01,Write,ACK
7.856063250000000,34,0x2A,0x05,Write,ACK
7.856086833333333,34,0x2A,0x00,Write,ACK
7.856110583333333,34,0x2A,0x3D,Write,ACK
7.856134250000000,34,0x2A,0x02,Write,ACK
7.856157916666667,34,0x2A,0x06,Write,ACK
7.856181583333333,34,0x2A,0x00,Write,ACK
7.856256166666666,35,0x2B,0x07,Read,ACK
7.856279833333334,35,0x2B,0x00,Read,ACK
7.856303500000000,35,0x2B,0x0D,Read,ACK
7.856327166666667,35,0x2B,0x07,Read,ACK
7.856350833333333,35,0x2B,0x01,Read,ACK
7.856374583333333,35,0x2B,0xE7,Read,ACK
7.856398250000000,35,0x2B,0x06,Read,NAK
7.918684166666667,36,0x2A,0x05,Write,ACK
7.918707750000000,36,0x2A,0x00,Write,ACK
7.918731416666667,36,0x2A,0x3D,Write,ACK
7.918755083333333,36,0x2A,0x03,Write,ACK
7.918778750000000,36,0x2A,0x06,Write,ACK
7.918802416666667,36,0x2A,0x00,Write,ACK
7.918826083333333,36,0x2A,0x07,Write,ACK
7.918849750000000,36,0x2A,0x00,Write,ACK
7.918873333333333,36,0x2A,0x0D,Write,ACK
7.918897000000000,36,0x2A,0x00,Write,ACK
7.918920666666667,36,0x2A,0x03,Write,ACK
7.918944250000000,36,0x2A,0x01,Write,ACK
7.918967916666666,36,0x2A,0x00,Write,ACK
10.342419083333333,37,0x2B,0x1E,Read,ACK
10.342442750000000,37,0x2B,0x00,Read,ACK
10.342466416666667,37,0x2B,0x5D,Read,ACK
10.342490083333333,37,0x2B,0x08,Read,ACK
10.342513750000000,37,0x2B,0x42,Read,ACK
10.342537333333333,37,0x2B,0xA5,Read,ACK
10.342561000000000,37,0x2B,0x85,Read,ACK
10.342584583333334,37,0x2B,0x30,Read,ACK
10.342608250000000,37,0x2B,0x7F,Read,ACK
10.342631916666667,37,0x2B,0x00,Read,ACK
10.342655499999999,37,0x2B,0x00,Read,ACK
10.342679166666667,37,0x2B,0x00,Read,ACK
10.342702750000001,37,0x2B,0x00,Read,ACK
10.342726416666666,37,0x2B,0x00,Read,ACK
10.342750083333334,37,0x2B,0x00,Read,ACK
10.342773666666666,37,0x2B,0x00,Read,ACK
10.342797333333333,37,0x2B,0x00,Read,ACK
10.342820916666666,37,0x2B,0x00,Read,ACK
10.342844583333333,37,0x2B,0x00,Read,ACK
10.342868250000000,37,0x2B,0x00,Read,ACK
10.342891916666666,37,0x2B,0x00,Read,ACK
10.342915500000000,37,0x2B,0x00,Read,ACK
10.342939166666667,37,0x2B,0x00,Read,ACK
10.342962833333333,37,0x2B,0x00,Read,ACK
10.342986500000000,37,0x2B,0x00,Read,ACK
10.343010083333333,37,0x2B,0x00,Read,ACK
10.343033750000000,37,0x2B,0x00,Read,ACK
10.343057333333334,37,0x2B,0x00,Read,ACK
10.343081000000000,37,0x2B,0x00,Read,ACK
10.343104750000000,37,0x2B,0x00,Read,NAK
10.350563416666667,38,0x2B,0x1E,Read,ACK
10.350587083333334,38,0x2B,0x00,Read,ACK
10.350610750000000,38,0x2B,0x5D,Read,ACK
10.350634333333334,38,0x2B,0x08,Read,ACK
10.350658083333334,38,0x2B,0x42,Read,ACK
10.350681666666667,38,0x2B,0xA5,Read,ACK
10.350705333333334,38,0x2B,0x85,Read,ACK
10.350728999999999,38,0x2B,0x30,Read,ACK
10.350752666666667,38,0x2B,0x7F,Read,ACK
10.350776249999999,38,0x2B,0x00,Read,ACK
10.350799916666666,38,0x2B,0x00,Read,ACK
10.350823583333334,38,0x2B,0x00,Read,ACK
10.350847166666666,38,0x2B,0x00,Read,ACK
10.350870833333333,38,0x2B,0x00,Read,ACK
10.350894500000001,38,0x2B,0x00,Read,ACK
10.350918166666666,38,0x2B,0x00,Read,ACK
10.350941750000000,38,0x2B,0x00,Read,ACK
10.350965416666666,38,0x2B,0x00,Read,ACK
10.350989083333333,38,0x2B,0x00,Read,ACK
10.351012750000001,38,0x2B,0x00,Read,ACK
10.351036333333333,38,0x2B,0x00,Read,ACK
10.351060000000000,38,0x2B,0x00,Read,ACK
10.351083666666666,38,0x2B,0x00,Read,ACK
10.351107333333333,38,0x2B,0x00,Read,ACK
10.351131000000001,38,0x2B,0x00,Read,ACK
10.351154583333333,38,0x2B,0x00,Read,ACK
10.351178250000000,38,0x2B,0x00,Read,ACK
10.351201916666666,38,0x2B,0x00,Read,ACK
10.351225500000000,38,0x2B,0x00,Read,ACK
10.351249166666667,38,0x2B,0x00,Read,NAK
10.357553416666667,39,0x2B,0x1E,Read,ACK
10.357577083333334,39,0x2B,0x00,Read,ACK
10.357600750000000,39,0x2B,0x5D,Read,ACK
10.357624416666667,39,0x2B,0x08,Read,ACK
10.357648083333334,39,0x2B,0x42,Read,ACK
10.357671666666667,39,0x2B,0xA5,Read,ACK
10.357695333333334,39,0x2B,0x85,Read,ACK
10.357718916666666,39,0x2B,0x30,Read,ACK
10.357742583333334,39,0x2B,0x7F,Read,ACK
10.357766249999999,39,0x2B,0x00,Read,ACK
10.357789916666666,39,0x2B,0x00,Read,ACK
10.357813500000001,39,0x2B,0x00,Read,ACK
10.357837166666666,39,0x2B,0x00,Read,ACK
10.357860750000000,39,0x2B,0x00,Read,ACK
10.357884333333333,39,0x2B,0x00,Read,ACK
10.357908000000000,39,0x2B,0x00,Read,ACK
10.357931583333333,39,0x2B,0x00,Read,ACK
10.357955250000000,39,0x2B,0x00,Read,ACK
10.357978833333334,39,0x2B,0x00,Read,ACK
10.358002416666666,39,0x2B,0x00,Read,ACK
10.358026000000001,39,0x2B,0x00,Read,ACK
10.358049666666666,39,0x2B,0x00,Read,ACK
10.358073250000000,39,0x2B,0x00,Read,ACK
10.358096916666666,39,0x2B,0x00,Read,ACK
10.358120583333333,39,0x2B,0x00,Read,ACK
10.358144250000000,39,0x2B,0x00,Read,ACK
10.358167916666666,39,0x2B,0x00,Read,ACK
10.358191500000000,39,0x2B,0x00,Read,ACK
10.358215166666668,39,0x2B,0x00,Read,ACK
10.358238833333333,39,0x2B,0x00,Read,NAK
10.365132250000000,40,0x2B,0x1E,Read,ACK
10.365155916666666,40,0x2B,0x00,Read,ACK
10.365179583333333,40,0x2B,0x5D,Read,ACK
10.365203250000000,40,0x2B,0x08,Read,ACK
10.365226916666666,40,0x2B,0x42,Read,ACK
10.365250583333333,40,0x2B,0xB1,Read,ACK
10.365274166666667,40,0x2B,0x8F,Read,ACK
10.365297833333333,40,0x2B,0x30,Read,ACK
10.365321500000000,40,0x2B,0x7F,Read,ACK
10.365345166666666,40,0x2B,0x00,Read,ACK
10.365368833333333,40,0x2B,0x00,Read,ACK
10.365392500000000,40,0x2B,0x00,Read,ACK
10.365416166666666,40,0x2B,0x00,Read,ACK
10.365439833333333,40,0x2B,0x00,Read,ACK
10.365463500000001,40,0x2B,0x00,Read,ACK
10.365487166666666,40,0x2B,0x00,Read,ACK
10.365510833333333,40,0x2B,0x00,Read,ACK
10.365534500000001,40,0x2B,0x00,Read,ACK
10.365558166666666,40,0x2B,0x00,Read,ACK
10.365581833333334,40,0x2B,0x00,Read,ACK
10.365605499999999,40,0x2B,0x00,Read,ACK
10.365629166666666,40,0x2B,0x00,Read,ACK
10.365652750000001,40,0x2B,0x00,Read,ACK
10.365676416666666,40,0x2B,0x00,Read,ACK
10.365700166666667,40,0x2B,0x00,Read,ACK
10.365723833333334,40,0x2B,0x00,Read,ACK
10.365747416666666,40,0x2B,0x00,Read,ACK
10.365771083333334,40,0x2B,0x00,Read,ACK
10.365794749999999,40,0x2B,0x00,Read,ACK
10.365818333333333,40,0x2B,0x00,Read,NAK
10.372678250000000,41,0x2B,0x1E,Read,ACK
10.372701833333334,41,0x2B,0x00,Read,ACK
10.372725500000000,41,0x2B,0x5D,Read,ACK
10.372749166666667,41,0x2B,0x08,Read,ACK
10.372772833333334,41,0x2B,0x42,Read,ACK
10.372796500000000,41,0x2B,0xC2,Read,ACK
10.372820166666667,41,0x2B,0x96,Read,ACK
10.372843833333333,41,0x2B,0x30,Read,ACK
10.372867500000000,41,0x2B,0x7F,Read,ACK
10.372891083333334,41,0x2B,0x00,Read,ACK
10.372914750000000,41,0x2B,0x00,Read,ACK
10.372938416666667,41,0x2B,0x00,Read,ACK
10.372961999999999,41,0x2B,0x00,Read,ACK
10.372985666666667,41,0x2B,0x00,Read,ACK
10.373009333333334,41,0x2B,0x00,Read,ACK
10.373033083333333,41,0x2B,0x00,Read,ACK
10.373056666666667,41,0x2B,0x00,Read,ACK
10.373080333333334,41,0x2B,0x00,Read,ACK
10.373103916666667,41,0x2B,0x00,Read,ACK
10.373127666666667,41,0x2B,0x00,Read,ACK
10.373151333333333,41,0x2B,0x00,Read,ACK
10.373175000000000,41,0x2B,0x00,Read,ACK
10.373198583333334,41,0x2B,0x00,Read,ACK
10.373222250000000,41,0x2B,0x00,Read,ACK
10.373245916666667,41,0x2B,0x00,Read,ACK
10.373269583333334,41,0x2B,0x00,Read,ACK
10.373293250000000,41,0x2B,0x00,Read,ACK
10.373316833333334,41,0x2B,0x00,Read,ACK
10.373340499999999,41,0x2B,0x00,Read,ACK
10.373364166666667,41,0x2B,0x00,Read,NAK
10.380277000000000,42,0x2B,0x1E,Read,ACK
10.380300583333334,42,0x2B,0x00,Read,ACK
10.380324249999999,42,0x2B,0x5D,Read,ACK
10.380347916666667,42,0x2B,0x08,Read,ACK
10.380371583333334,42,0x2B,0x42,Read,ACK
10.380395166666666,42,0x2B,0xD5,Read,ACK
10.380418833333334,42,0x2B,0x9D,Read,ACK
10.380442499999999,42,0x2B,0x30,Read,ACK
10.380466083333333,42,0x2B,0x7F,Read,ACK
10.380489750000001,42,0x2B,0x00,Read,ACK
10.380513416666666,42,0x2B,0x00,Read,ACK
10.380537000000000,42,0x2B,0x00,Read,ACK
10.380560666666666,42,0x2B,0x00,Read,ACK
10.380584333333333,42,0x2B,0x00,Read,ACK
10.380608000000001,42,0x2B,0x00,Read,ACK
10.380631666666666,42,0x2B,0x00,Read,ACK
10.380655250000000,42,0x2B,0x00,Read,ACK
10.380678916666668,42,0x2B,0x00,Read,ACK
10.380702583333333,42,0x2B,0x00,Read,ACK
10.380726250000000,42,0x2B,0x00,Read,ACK
10.380749833333333,42,0x2B,0x00,Read,ACK
10.380773500000000,42,0x2B,0x00,Read,ACK
10.380797083333333,42,0x2B,0x00,Read,ACK
10.380820750000000,42,0x2B,0x00,Read,ACK
10.380844416666667,42,0x2B,0x00,Read,ACK
10.380868083333333,42,0x2B,0x00,Read,ACK
10.380891666666667,42,0x2B,0x00,Read,ACK
10.380915333333334,42,0x2B,0x00,Read,ACK
10.380939000000000,42,0x2B,0x00,Read,ACK
10.380962583333334,42,0x2B,0x00,Read,NAK
10.387874166666666,43,0x2B,0x1E,Read,ACK
10.387897750000000,43,0x2B,0x00,Read,ACK
10.387921416666666,43,0x2B,0x5D,Read,ACK
10.387945000000000,43,0x2B,0x08,Read,ACK
10.387968666666668,43,0x2B,0x42,Read,ACK
10.387992333333333,43,0x2B,0xE7,Read,ACK
10.388016000000000,43,0x2B,0xA0,Read,ACK
10.388039666666666,43,0x2B,0x30,Read,ACK
10.388063333333333,43,0x2B,0x7F,Read,ACK
10.388087000000001,43,0x2B,0x00,Read,ACK
10.388110666666666,43,0x2B,0x00,Read,ACK
10.388134250000000,43,0x2B,0x00,Read,ACK
10.388158000000001,43,0x2B,0x00,Read,ACK
10.388181666666666,43,0x2B,0x00,Read,ACK
10.388205333333334,43,0x2B,0x00,Read,ACK
10.388229000000001,43,0x2B,0x00,Read,ACK
10.388252666666666,43,0x2B,0x00,Read,ACK
10.388276333333334,43,0x2B,0x00,Read,ACK
10.388299999999999,43,0x2B,0x00,Read,ACK
10.388323583333333,43,0x2B,0x00,Read,ACK
10.388347250000001,43,0x2B,0x00,Read,ACK
10.388370916666666,43,0x2B,0x00,Read,ACK
10.388394583333334,43,0x2B,0x00,Read,ACK
10.388418333333334,43,0x2B,0x00,Read,ACK
10.388441916666666,43,0x2B,0x00,Read,ACK
10.388465583333334,43,0x2B,0x00,Read,ACK
10.388489249999999,43,0x2B,0x00,Read,ACK
10.388512916666667,43,0x2B,0x00,Read,ACK
10.388536583333334,43,0x2B,0x00,Read,ACK
10.388560249999999,43,0x2B,0x00,Read,NAK
10.395410500000001,44,0x2B,0x1E,Read,ACK
10.395434166666666,44,0x2B,0x00,Read,ACK
10.395457833333333,44,0x2B,0x5D,Read,ACK
10.395481416666666,44,0x2B,0x08,Read,ACK
10.395505083333333,44,0x2B,0x42,Read,ACK
10.395528666666667,44,0x2B,0xF8,Read,ACK
10.395552333333333,44,0x2B,0xA3,Read,ACK
10.395576000000000,44,0x2B,0x30,Read,ACK
10.395599666666667,44,0x2B,0x7F,Read,ACK
10.395623333333333,44,0x2B,0x00,Read,ACK
10.395647000000000,44,0x2B,0x00,Read,ACK
10.395670666666666,44,0x2B,0x00,Read,ACK
10.395694250000000,44,0x2B,0x00,Read,ACK
10.395718000000000,44,0x2B,0x00,Read,ACK
10.395741666666666,44,0x2B,0x00,Read,ACK
10.395765333333333,44,0x2B,0x00,Read,ACK
10.395789000000001,44,0x2B,0x00,Read,ACK
10.395812666666666,44,0x2B,0x00,Read,ACK
10.395836333333333,44,0x2B,0x00,Read,ACK
10.395860000000001,44,0x2B,0x00,Read,ACK
10.395883666666666,44,0x2B,0x00,Read,ACK
10.395907333333334,44,0x2B,0x00,Read,ACK
10.395930916666666,44,0x2B,0x00,Read,ACK
10.395954666666666,44,0x2B,0x00,Read,ACK
10.395978333333334,44,0x2B,0x00,Read,ACK
10.396001999999999,44,0x2B,0x00,Read,ACK
10.396025583333333,44,0x2B,0x00,Read,ACK
10.396049250000001,44,0x2B,0x00,Read,ACK
10.396072916666666,44,0x2B,0x00,Read,ACK
10.396096583333334,44,0x2B,0x00,Read,NAK
10.403002416666666,45,0x2B,0x1E,Read,ACK
10.403026083333334,45,0x2B,0x00,Read,ACK
10.403049666666666,45,0x2B,0x5D,Read,ACK
10.403073333333333,45,0x2B,0x08,Read,ACK
10.403097000000001,45,0x2B,0x52,Read,ACK
10.403120666666666,45,0x2B,0x0B,Read,ACK
10.403144250000000,45,0x2B,0xA5,Read,ACK
10.403167916666666,45,0x2B,0x40,Read,ACK
10.403191500000000,45,0x2B,0x7F,Read,ACK
10.403215166666667,45,0x2B,0x00,Read,ACK
10.403238833333333,45,0x2B,0x00,Read,ACK
10.403262416666667,45,0x2B,0x00,Read,ACK
10.403286083333333,45,0x2B,0x00,Read,ACK
10.403309666666667,45,0x2B,0x00,Read,ACK
10.403333333333334,45,0x2B,0x00,Read,ACK
10.403357000000000,45,0x2B,0x00,Read,ACK
10.403380666666667,45,0x2B,0x00,Read,ACK
10.403404333333333,45,0x2B,0x00,Read,ACK
10.403428000000000,45,0x2B,0x00,Read,ACK
10.403451583333334,45,0x2B,0x00,Read,ACK
10.403475250000000,45,0x2B,0x00,Read,ACK
10.403498916666667,45,0x2B,0x00,Read,ACK
10.403522583333332,45,0x2B,0x00,Read,ACK
10.403546166666667,45,0x2B,0x00,Read,ACK
10.403569833333334,45,0x2B,0x00,Read,ACK
10.403593499999999,45,0x2B,0x00,Read,ACK
10.403617166666667,45,0x2B,0x00,Read,ACK
10.403640749999999,45,0x2B,0x00,Read,ACK
10.403664416666667,45,0x2B,0x00,Read,ACK
10.403688000000001,45,0x2B,0x00,Read,NAK
10.410585749999999,46,0x2B,0x1E,Read,ACK
10.410609416666667,46,0x2B,0x00,Read,ACK
10.410633083333334,46,0x2B,0x5D,Read,ACK
10.410656749999999,46,0x2B,0x08,Read,ACK
10.410680416666667,46,0x2B,0x52,Read,ACK
10.410704083333334,46,0x2B,0x1C,Read,ACK
10.410727666666666,46,0x2B,0xA7,Read,ACK
10.410751333333334,46,0x2B,0x30,Read,ACK
10.410774999999999,46,0x2B,0x7F,Read,ACK
10.410798583333333,46,0x2B,0x00,Read,ACK
10.410822250000001,46,0x2B,0x00,Read,ACK
10.410845916666666,46,0x2B,0x00,Read,ACK
10.410869583333334,46,0x2B,0x00,Read,ACK
10.410893250000001,46,0x2B,0x00,Read,ACK
10.410916833333333,46,0x2B,0x00,Read,ACK
10.410940500000001,46,0x2B,0x00,Read,ACK
10.410964166666666,46,0x2B,0x00,Read,ACK
10.410987833333333,46,0x2B,0x00,Read,ACK
10.411011416666666,46,0x2B,0x00,Read,ACK
10.411035083333333,46,0x2B,0x00,Read,ACK
10.411058833333334,46,0x2B,0x00,Read,ACK
10.411082499999999,46,0x2B,0x00,Read,ACK
10.411106083333333,46,0x2B,0x00,Read,ACK
10.411129750000001,46,0x2B,0x00,Read,ACK
10.411153416666666,46,0x2B,0x00,Read,ACK
10.411177083333333,46,0x2B,0x00,Read,ACK
10.411200750000001,46,0x2B,0x00,Read,ACK
10.411224416666666,46,0x2B,0x00,Read,ACK
10.411248083333334,46,0x2B,0x00,Read,ACK
10.411271749999999,46,0x2B,0x00,Read,NAK
10.418196249999999,47,0x2B,0x1E,Read,ACK
10.418219833333334,47,0x2B,0x00,Read,ACK
10.418243500000001,47,0x2B,0x5D,Read,ACK
10.418267250000000,47,0x2B,0x08,Read,ACK
10.418290833333334,47,0x2B,0x52,Read,ACK
10.418314416666666,47,0x2B,0x2D,Read,ACK
10.418338083333333,47,0x2B,0xAB,Read,ACK
10.418361750000001,47,0x2B,0x30,Read,ACK
10.418385333333333,47,0x2B,0x7F,Read,ACK
10.418409000000000,47,0x2B,0x00,Read,ACK
10.418432583333333,47,0x2B,0x00,Read,ACK
10.418456250000000,47,0x2B,0x00,Read,ACK
10.418479833333333,47,0x2B,0x00,Read,ACK
10.418503500000000,47,0x2B,0x00,Read,ACK
10.418527083333334,47,0x2B,0x00,Read,ACK
10.418550750000000,47,0x2B,0x00,Read,ACK
10.418574333333334,47,0x2B,0x00,Read,ACK
10.418597999999999,47,0x2B,0x00,Read,ACK
10.418621666666667,47,0x2B,0x00,Read,ACK
10.418645333333334,47,0x2B,0x00,Read,ACK
10.418668916666666,47,0x2B,0x00,Read,ACK
10.418692583333334,47,0x2B,0x00,Read,ACK
10.418716166666666,47,0x2B,0x00,Read,ACK
10.418739833333333,47,0x2B,0x00,Read,ACK
10.418763500000001,47,0x2B,0x00,Read,ACK
10.418787083333333,47,0x2B,0x00,Read,ACK
10.418810750000000,47,0x2B,0x00,Read,ACK
10.418834333333333,47,0x2B,0x00,Read,ACK
10.418858000000000,47,0x2B,0x00,Read,ACK
10.418881666666667,47,0x2B,0x00,Read,NAK
10.425779083333333,48,0x2B,0x1E,Read,ACK
10.425802750000001,48,0x2B,0x00,Read,ACK
10.425826416666666,48,0x2B,0x5D,Read,ACK
10.425850083333334,48,0x2B,0x08,Read,ACK
10.425873749999999,48,0x2B,0x52,Read,ACK
10.425897333333333,48,0x2B,0x3E,Read,ACK
10.425921000000001,48,0x2B,0xAE,Read,ACK
10.425944666666666,48,0x2B,0x30,Read,ACK
10.425968416666667,48,0x2B,0x7F,Read,ACK
10.425992000000001,48,0x2B,0x00,Read,ACK
10.426015749999999,48,0x2B,0x00,Read,ACK
10.426039333333334,48,0x2B,0x00,Read,ACK
10.426062999999999,48,0x2B,0x00,Read,ACK
10.426086583333333,48,0x2B,0x00,Read,ACK
10.426110250000001,48,0x2B,0x00,Read,ACK
10.426133833333333,48,0x2B,0x00,Read,ACK
10.426157583333334,48,0x2B,0x00,Read,ACK
10.426181250000001,48,0x2B,0x00,Read,ACK
10.426205000000000,48,0x2B,0x00,Read,ACK
10.426228666666667,48,0x2B,0x00,Read,ACK
10.426252333333334,48,0x2B,0x00,Read,ACK
10.426276000000000,48,0x2B,0x00,Read,ACK
10.426299666666667,48,0x2B,0x00,Read,ACK
10.426323416666667,48,0x2B,0x00,Read,ACK
10.426347083333333,48,0x2B,0x00,Read,ACK
10.426370750000000,48,0x2B,0x00,Read,ACK
10.426394416666668,48,0x2B,0x00,Read,ACK
10.426418083333333,48,0x2B,0x00,Read,ACK
10.426441750000000,48,0x2B,0x00,Read,ACK
10.426465416666666,48,0x2B,0x00,Read,NAK
10.433412333333333,49,0x2B,0x1E,Read,ACK
10.433436000000000,49,0x2B,0x00,Read,ACK
10.433459666666666,49,0x2B,0x5D,Read,ACK
10.433483250000000,49,0x2B,0x08,Read,ACK
10.433507000000001,49,0x2B,0x52,Read,ACK
10.433530583333333,49,0x2B,0x51,Read,ACK
10.433554250000000,49,0x2B,0xB5,Read,ACK
10.433577916666666,49,0x2B,0x30,Read,ACK
10.433601500000000,49,0x2B,0x7F,Read,ACK
10.433625166666667,49,0x2B,0x00,Read,ACK
10.433648833333333,49,0x2B,0x00,Read,ACK
10.433672500000000,49,0x2B,0x00,Read,ACK
10.433696166666667,49,0x2B,0x00,Read,ACK
10.433719833333333,49,0x2B,0x00,Read,ACK
10.433743416666667,49,0x2B,0x00,Read,ACK
10.433767166666666,49,0x2B,0x00,Read,ACK
10.433790750000000,49,0x2B,0x00,Read,ACK
10.433814416666667,49,0x2B,0x00,Read,ACK
10.433838000000000,49,0x2B,0x00,Read,ACK
10.433861666666667,49,0x2B,0x00,Read,ACK
10.433885416666667,49,0x2B,0x00,Read,ACK
10.433909000000000,49,0x2B,0x00,Read,ACK
10.433932666666667,49,0x2B,0x00,Read,ACK
10.433956333333333,49,0x2B,0x00,Read,ACK
10.433980000000000,49,0x2B,0x00,Read,ACK
10.434003666666667,49,0x2B,0x00,Read,ACK
10.434027333333333,49,0x2B,0x00,Read,ACK
10.434051000000000,49,0x2B,0x00,Read,ACK
10.434074583333333,49,0x2B,0x00,Read,ACK
10.434098250000000,49,0x2B,0x00,Read,NAK
10.440932583333334,50,0x2B,0x1E,Read,ACK
10.440956249999999,50,0x2B,0x00,Read,ACK
10.440979916666667,50,0x2B,0x5D,Read,ACK
10.441003500000001,50,0x2B,0x08,Read,ACK
10.441027166666666,50,0x2B,0x52,Read,ACK
10.441050750000000,50,0x2B,0x64,Read,ACK
10.441074416666666,50,0x2B,0xBB,Read,ACK
10.441098083333333,50,0x2B,0x30,Read,ACK
10.441121666666668,50,0x2B,0x7F,Read,ACK
10.441145250000000,50,0x2B,0x00,Read,ACK
10.441168916666667,50,0x2B,0x00,Read,ACK
10.441192583333333,50,0x2B,0x00,Read,ACK
10.441216250000000,50,0x2B,0x00,Read,ACK
10.441239833333332,50,0x2B,0x00,Read,ACK
10.441263500000000,50,0x2B,0x00,Read,ACK
10.441287083333334,50,0x2B,0x00,Read,ACK
10.441310750000000,50,0x2B,0x00,Read,ACK
10.441334416666667,50,0x2B,0x00,Read,ACK
10.441358083333334,50,0x2B,0x00,Read,ACK
10.441381750000000,50,0x2B,0x00,Read,ACK
10.441405333333334,50,0x2B,0x00,Read,ACK
10.441428999999999,50,0x2B,0x00,Read,ACK
10.441452666666667,50,0x2B,0x00,Read,ACK
10.441476333333334,50,0x2B,0x00,Read,ACK
10.441499916666666,50,0x2B,0x00,Read,ACK
10.441523583333334,50,0x2B,0x00,Read,ACK
10.441547249999999,50,0x2B,0x00,Read,ACK
10.441570916666667,50,0x2B,0x00,Read,ACK
10.441594500000001,50,0x2B,0x00,Read,ACK
10.441618166666666,50,0x2B,0x00,Read,NAK
10.448556500000000,51,0x2B,0x1E,Read,ACK
10.448580083333333,51,0x2B,0x00,Read,ACK
10.448603750000000,51,0x2B,0x5D,Read,ACK
10.448627333333333,51,0x2B,0x08,Read,ACK
10.448651000000000,51,0x2B,0x52,Read,ACK
10.448674750000000,51,0x2B,0x76,Read,ACK
10.448698333333333,51,0x2B,0xC2,Read,ACK
10.448722000000000,51,0x2B,0x30,Read,ACK
10.448745666666667,51,0x2B,0x7F,Read,ACK
10.448769333333333,51,0x2B,0x00,Read,ACK
10.448793000000000,51,0x2B,0x00,Read,ACK
10.448816583333333,51,0x2B,0x00,Read,ACK
10.448840250000000,51,0x2B,0x00,Read,ACK
10.448863916666667,51,0x2B,0x00,Read,ACK
10.448887583333333,51,0x2B,0x00,Read,ACK
10.448911250000000,51,0x2B,0x00,Read,ACK
10.448934916666667,51,0x2B,0x00,Read,ACK
10.448958500000000,51,0x2B,0x00,Read,ACK
10.448982250000000,51,0x2B,0x00,Read,ACK
10.449005916666666,51,0x2B,0x00,Read,ACK
10.449029583333333,51,0x2B,0x00,Read,ACK
10.449053250000000,51,0x2B,0x00,Read,ACK
10.449076833333333,51,0x2B,0x00,Read,ACK
10.449100500000000,51,0x2B,0x00,Read,ACK
10.449124166666667,51,0x2B,0x00,Read,ACK
10.449147833333333,51,0x2B,0x00,Read,ACK
10.449171583333333,51,0x2B,0x00,Read,ACK
10.449195166666666,51,0x2B,0x00,Read,ACK
10.449218833333333,51,0x2B,0x00,Read,ACK
10.449242500000000,51,0x2B,0x00,Read,NAK
10.456153750000000,52,0x2B,0x1E,Read,ACK
10.456177416666666,52,0x2B,0x00,Read,ACK
10.456201083333333,52,0x2B,0x5D,Read,ACK
10.456224750000001,52,0x2B,0x08,Read,ACK
10.456248416666666,52,0x2B,0x52,Read,ACK
10.456272000000000,52,0x2B,0x86,Read,ACK
10.456295666666668,52,0x2B,0xC7,Read,ACK
10.456319250000000,52,0x2B,0x30,Read,ACK
10.456342916666667,52,0x2B,0x7F,Read,ACK
10.456366583333333,52,0x2B,0x00,Read,ACK
10.456390250000000,52,0x2B,0x00,Read,ACK
10.456413833333333,52,0x2B,0x00,Read,ACK
10.456437500000000,52,0x2B,0x00,Read,ACK
10.456461166666667,52,0x2B,0x00,Read,ACK
10.456484833333333,52,0x2B,0x00,Read,ACK
10.456508416666667,52,0x2B,0x00,Read,ACK
10.456532083333334,52,0x2B,0x00,Read,ACK
10.456555666666667,52,0x2B,0x00,Read,ACK
10.456579333333334,52,0x2B,0x00,Read,ACK
10.456602999999999,52,0x2B,0x00,Read,ACK
10.456626666666667,52,0x2B,0x00,Read,ACK
10.456650249999999,52,0x2B,0x00,Read,ACK
10.456673916666666,52,0x2B,0x00,Read,ACK
10.456697583333334,52,0x2B,0x00,Read,ACK
10.456721249999999,52,0x2B,0x00,Read,ACK
10.456744833333333,52,0x2B,0x00,Read,ACK
10.456768500000001,52,0x2B,0x00,Read,ACK
10.456792083333333,52,0x2B,0x00,Read,ACK
10.456815750000001,52,0x2B,0x00,Read,ACK
10.456839416666666,52,0x2B,0x00,Read,NAK
10.463716750000000,53,0x2B,0x1E,Read,ACK
10.463740416666667,53,0x2B,0x00,Read,ACK
10.463764083333333,53,0x2B,0x5D,Read,ACK
10.463787833333333,53,0x2B,0x08,Read,ACK
10.463811500000000,53,0x2B,0x52,Read,ACK
10.463835083333333,53,0x2B,0x97,Read,ACK
10.463858750000000,53,0x2B,0xCD,Read,ACK
10.463882333333334,53,0x2B,0x30,Read,ACK
10.463906000000000,53,0x2B,0x7F,Read,ACK
10.463929666666667,53,0x2B,0x00,Read,ACK
10.463953333333333,53,0x2B,0x00,Read,ACK
10.463977000000000,53,0x2B,0x00,Read,ACK
10.464000666666667,53,0x2B,0x00,Read,ACK
10.464024333333333,53,0x2B,0x00,Read,ACK
10.464048000000000,53,0x2B,0x00,Read,ACK
10.464071750000000,53,0x2B,0x00,Read,ACK
10.464095416666666,53,0x2B,0x00,Read,ACK
10.464119083333333,53,0x2B,0x00,Read,ACK
10.464142750000001,53,0x2B,0x00,Read,ACK
10.464166416666666,53,0x2B,0x00,Read,ACK
10.464190083333333,53,0x2B,0x00,Read,ACK
10.464213666666666,53,0x2B,0x00,Read,ACK
10.464237333333333,53,0x2B,0x00,Read,ACK
10.464261083333334,53,0x2B,0x00,Read,ACK
10.464284749999999,53,0x2B,0x00,Read,ACK
10.464308416666666,53,0x2B,0x00,Read,ACK
10.464332083333334,53,0x2B,0x00,Read,ACK
10.464355749999999,53,0x2B,0x00,Read,ACK
10.464379416666667,53,0x2B,0x00,Read,ACK
10.464403083333334,53,0x2B,0x00,Read,NAK
10.471299999999999,54,0x2B,0x1E,Read,ACK
10.471323583333334,54,0x2B,0x00,Read,ACK
10.471347250000001,54,0x2B,0x5D,Read,ACK
10.471370916666666,54,0x2B,0x08,Read,ACK
10.471394583333334,54,0x2B,0x52,Read,ACK
10.471418249999999,54,0x2B,0xAA,Read,ACK
10.471441916666667,54,0x2B,0xD2,Read,ACK
10.471465500000001,54,0x2B,0x30,Read,ACK
10.471489083333333,54,0x2B,0x7F,Read,ACK
10.471512750000000,54,0x2B,0x00,Read,ACK
10.471536333333333,54,0x2B,0x00,Read,ACK
10.471560000000000,54,0x2B,0x00,Read,ACK
10.471583666666668,54,0x2B,0x00,Read,ACK
10.471607333333333,54,0x2B,0x00,Read,ACK
10.471631000000000,54,0x2B,0x00,Read,ACK
10.471654583333333,54,0x2B,0x00,Read,ACK
10.471678250000000,54,0x2B,0x00,Read,ACK
10.471701916666667,54,0x2B,0x00,Read,ACK
10.471725500000000,54,0x2B,0x00,Read,ACK
10.471749250000000,54,0x2B,0x00,Read,ACK
10.471772833333333,54,0x2B,0x00,Read,ACK
10.471796500000000,54,0x2B,0x00,Read,ACK
10.471820083333334,54,0x2B,0x00,Read,ACK
10.471843750000000,54,0x2B,0x00,Read,ACK
10.471867500000000,54,0x2B,0x00,Read,ACK
10.471891083333333,54,0x2B,0x00,Read,ACK
10.471914750000000,54,0x2B,0x00,Read,ACK
10.471938416666667,54,0x2B,0x00,Read,ACK
10.471962083333333,54,0x2B,0x00,Read,ACK
10.471985750000000,54,0x2B,0x00,Read,NAK
10.478906333333333,55,0x2B,0x1E,Read,ACK
10.478929916666667,55,0x2B,0x00,Read,ACK
10.478953583333332,55,0x2B,0x5D,Read,ACK
10.478977250000000,55,0x2B,0x08,Read,ACK
10.479000833333334,55,0x2B,0x52,Read,ACK
10.479024416666666,55,0x2B,0xBB,Read,ACK
10.479048083333334,55,0x2B,0xD6,Read,ACK
10.479071749999999,55,0x2B,0x30,Read,ACK
10.479095333333333,55,0x2B,0x7F,Read,ACK
10.479118916666666,55,0x2B,0x00,Read,ACK
10.479142583333333,55,0x2B,0x00,Read,ACK
10.479166250000000,55,0x2B,0x00,Read,ACK
10.479189916666666,55,0x2B,0x00,Read,ACK
10.479213500000000,55,0x2B,0x00,Read,ACK
10.479237166666667,55,0x2B,0x00,Read,ACK
10.479260750000000,55,0x2B,0x00,Read,ACK
10.479284416666667,55,0x2B,0x00,Read,ACK
10.479308083333333,55,0x2B,0x00,Read,ACK
10.479331750000000,55,0x2B,0x00,Read,ACK
10.479355333333332,55,0x2B,0x00,Read,ACK
10.479378916666667,55,0x2B,0x00,Read,ACK
10.479402583333334,55,0x2B,0x00,Read,ACK
10.479426249999999,55,0x2B,0x00,Read,ACK
10.479449833333334,55,0x2B,0x00,Read,ACK
10.479473499999999,55,0x2B,0x00,Read,ACK
10.479497083333333,55,0x2B,0x00,Read,ACK
10.479520750000001,55,0x2B,0x00,Read,ACK
10.479544416666666,55,0x2B,0x00,Read,ACK
10.479568083333334,55,0x2B,0x00,Read,ACK
10.479591666666666,55,0x2B,0x00,Read,NAK
10.486561083333333,56,0x2B,0x1E,Read,ACK
10.486584666666667,56,0x2B,0x00,Read,ACK
10.486608416666666,56,0x2B,0x5D,Read,ACK
10.486632083333333,56,0x2B,0x08,Read,ACK
10.486655750000001,56,0x2B,0x52,Read,ACK
10.486679416666666,56,0x2B,0xCB,Read,ACK
10.486703000000000,56,0x2B,0xD9,Read,ACK
10.486726666666666,56,0x2B,0x30,Read,ACK
10.486750333333333,56,0x2B,0x7F,Read,ACK
10.486773916666667,56,0x2B,0x00,Read,ACK
10.486797583333333,56,0x2B,0x00,Read,ACK
10.486821250000000,56,0x2B,0x00,Read,ACK
10.486844833333333,56,0x2B,0x00,Read,ACK
10.486868583333333,56,0x2B,0x00,Read,ACK
10.486892250000000,56,0x2B,0x00,Read,ACK
10.486915916666666,56,0x2B,0x00,Read,ACK
10.486939500000000,56,0x2B,0x00,Read,ACK
10.486963166666667,56,0x2B,0x00,Read,ACK
10.486986833333333,56,0x2B,0x00,Read,ACK
10.487010500000000,56,0x2B,0x00,Read,ACK
10.487034166666668,56,0x2B,0x00,Read,ACK
10.487057833333333,56,0x2B,0x00,Read,ACK
10.487081500000000,56,0x2B,0x00,Read,ACK
10.487105166666666,56,0x2B,0x00,Read,ACK
10.487128833333333,56,0x2B,0x00,Read,ACK
10.487152500000001,56,0x2B,0x00,Read,ACK
10.487176166666666,56,0x2B,0x00,Read,ACK
10.487199750000000,56,0x2B,0x00,Read,ACK
10.487223416666666,56,0x2B,0x00,Read,ACK
10.487247083333333,56,0x2B,0x00,Read,NAK
10.494150500000000,57,0x2B,0x1E,Read,ACK
10.494174166666667,57,0x2B,0x00,Read,ACK
10.494197833333333,57,0x2B,0x5D,Read,ACK
10.494221500000000,57,0x2B,0x08,Read,ACK
10.494245083333333,57,0x2B,0x52,Read,ACK
10.494268750000000,57,0x2B,0xD9,Read,ACK
10.494292416666667,57,0x2B,0xDD,Read,ACK
10.494316083333333,57,0x2B,0x30,Read,ACK
10.494339666666667,57,0x2B,0x7F,Read,ACK
10.494363333333334,57,0x2B,0x00,Read,ACK
10.494387000000000,57,0x2B,0x00,Read,ACK
10.494410583333334,57,0x2B,0x00,Read,ACK
10.494434249999999,57,0x2B,0x00,Read,ACK
10.494457916666667,57,0x2B,0x00,Read,ACK
10.494481583333334,57,0x2B,0x00,Read,ACK
10.494505166666666,57,0x2B,0x00,Read,ACK
10.494528833333334,57,0x2B,0x00,Read,ACK
10.494552499999999,57,0x2B,0x00,Read,ACK
10.494576166666667,57,0x2B,0x00,Read,ACK
10.494599833333334,57,0x2B,0x00,Read,ACK
10.494623416666666,57,0x2B,0x00,Read,ACK
10.494647083333334,57,0x2B,0x00,Read,ACK
10.494670749999999,57,0x2B,0x00,Read,ACK
10.494694416666666,57,0x2B,0x00,Read,ACK
10.494718083333334,57,0x2B,0x00,Read,ACK
10.494741666666666,57,0x2B,0x00,Read,ACK
10.494765333333334,57,0x2B,0x00,Read,ACK
10.494788916666666,57,0x2B,0x00,Read,ACK
10.494812583333333,57,0x2B,0x00,Read,ACK
10.494836250000001,57,0x2B,0x00,Read,NAK
10.501687583333334,58,0x2B,0x1E,Read,ACK
10.501711166666666,58,0x2B,0x00,Read,ACK
10.501734833333334,58,0x2B,0x5D,Read,ACK
10.501758499999999,58,0x2B,0x08,Read,ACK
10.501782166666667,58,0x2B,0x52,Read,ACK
10.501805750000001,58,0x2B,0xE7,Read,ACK
10.501829416666666,58,0x2B,0xE1,Read,ACK
10.501853000000001,58,0x2B,0x30,Read,ACK
10.501876666666666,58,0x2B,0x7F,Read,ACK
10.501900333333333,58,0x2B,0x00,Read,ACK
10.501924083333334,58,0x2B,0x00,Read,ACK
10.501947749999999,58,0x2B,0x00,Read,ACK
10.501971416666667,58,0x2B,0x00,Read,ACK
10.501995083333334,58,0x2B,0x00,Read,ACK
10.502018750000000,58,0x2B,0x00,Read,ACK
10.502042416666667,58,0x2B,0x00,Read,ACK
10.502065999999999,58,0x2B,0x00,Read,ACK
10.502089500000000,58,0x2B,0x00,Read,ACK
10.502113166666666,58,0x2B,0x00,Read,ACK
10.502136750000000,58,0x2B,0x00,Read,ACK
10.502160333333334,58,0x2B,0x00,Read,ACK
10.502183916666667,58,0x2B,0x00,Read,ACK
10.502207583333334,58,0x2B,0x00,Read,ACK
10.502231249999999,58,0x2B,0x00,Read,ACK
10.502254916666667,58,0x2B,0x00,Read,ACK
10.502278499999999,58,0x2B,0x00,Read,ACK
10.502302083333333,58,0x2B,0x00,Read,ACK
10.502325750000001,58,0x2B,0x00,Read,ACK
10.502349333333333,58,0x2B,0x00,Read,ACK
10.502373000000000,58,0x2B,0x00,Read,NAK
10.509253416666667,59,0x2B,0x1E,Read,ACK
10.509277083333334,59,0x2B,0x00,Read,ACK
10.509300666666666,59,0x2B,0x5D,Read,ACK
10.509324333333334,59,0x2B,0x08,Read,ACK
10.509347999999999,59,0x2B,0x52,Read,ACK
10.509371666666667,59,0x2B,0xF4,Read,ACK
10.509395250000001,59,0x2B,0xE6,Read,ACK
10.509418916666666,59,0x2B,0x30,Read,ACK
10.509442583333334,59,0x2B,0x7F,Read,ACK
10.509466166666666,59,0x2B,0x00,Read,ACK
10.509489833333333,59,0x2B,0x00,Read,ACK
10.509513500000001,59,0x2B,0x00,Read,ACK
10.509537083333333,59,0x2B,0x00,Read,ACK
10.509560750000000,59,0x2B,0x00,Read,ACK
10.509584416666666,59,0x2B,0x00,Read,ACK
10.509608083333333,59,0x2B,0x00,Read,ACK
10.509631750000000,59,0x2B,0x00,Read,ACK
10.509655333333333,59,0x2B,0x00,Read,ACK
10.509679000000000,59,0x2B,0x00,Read,ACK
10.509702666666668,59,0x2B,0x00,Read,ACK
10.509726416666666,59,0x2B,0x00,Read,ACK
10.509750000000000,59,0x2B,0x00,Read,ACK
10.509773666666666,59,0x2B,0x00,Read,ACK
10.509797333333333,59,0x2B,0x00,Read,ACK
10.509821000000001,59,0x2B,0x00,Read,ACK
10.509844666666666,59,0x2B,0x00,Read,ACK
10.509868333333333,59,0x2B,0x00,Read,ACK
10.509891916666666,59,0x2B,0x00,Read,ACK
10.509915583333333,59,0x2B,0x00,Read,ACK
10.509939250000000,59,0x2B,0x00,Read,NAK
10.516840583333334,60,0x2B,0x1E,Read,ACK
10.516864249999999,60,0x2B,0x00,Read,ACK
10.516887833333334,60,0x2B,0x5D,Read,ACK
10.516911500000001,60,0x2B,0x08,Read,ACK
10.516935166666666,60,0x2B,0x62,Read,ACK
10.516958833333334,60,0x2B,0x01,Read,ACK
10.516982416666666,60,0x2B,0xE9,Read,ACK
10.517006083333333,60,0x2B,0x30,Read,ACK
10.517029750000001,60,0x2B,0x7F,Read,ACK
10.517053333333333,60,0x2B,0x00,Read,ACK
10.517077000000000,60,0x2B,0x00,Read,ACK
10.517100583333333,60,0x2B,0x00,Read,ACK
10.517124250000000,60,0x2B,0x00,Read,ACK
10.517147916666667,60,0x2B,0x00,Read,ACK
10.517171583333333,60,0x2B,0x00,Read,ACK
10.517195250000000,60,0x2B,0x00,Read,ACK
10.517218833333333,60,0x2B,0x00,Read,ACK
10.517242500000000,60,0x2B,0x00,Read,ACK
10.517266166666667,60,0x2B,0x00,Read,ACK
10.517289833333333,60,0x2B,0x00,Read,ACK
10.517313416666667,60,0x2B,0x00,Read,ACK
10.517337083333333,60,0x2B,0x00,Read,ACK
10.517360666666667,60,0x2B,0x00,Read,ACK
10.517384333333334,60,0x2B,0x00,Read,ACK
10.517408000000000,60,0x2B,0x00,Read,ACK
10.517431666666667,60,0x2B,0x00,Read,ACK
10.517455249999999,60,0x2B,0x00,Read,ACK
10.517478916666667,60,0x2B,0x00,Read,ACK
10.517502500000001,60,0x2B,0x00,Read,ACK
10.517526166666666,60,0x2B,0x00,Read,NAK
10.524429500000000,61,0x2B,0x1E,Read,ACK
10.524453166666667,61,0x2B,0x00,Read,ACK
10.524476833333333,61,0x2B,0x5D,Read,ACK
10.524500500000000,61,0x2B,0x08,Read,ACK
10.524524083333333,61,0x2B,0x62,Read,ACK
10.524547750000000,61,0x2B,0x0C,Read,ACK
10.524571416666667,61,0x2B,0xEA,Read,ACK
10.524595000000000,61,0x2B,0x30,Read,ACK
10.524618666666667,61,0x2B,0x7F,Read,ACK
10.524642333333333,61,0x2B,0x00,Read,ACK
10.524665916666667,61,0x2B,0x00,Read,ACK
10.524689583333334,61,0x2B,0x00,Read,ACK
10.524713250000000,61,0x2B,0x00,Read,ACK
10.524736916666667,61,0x2B,0x00,Read,ACK
10.524760583333334,61,0x2B,0x00,Read,ACK
10.524784166666667,61,0x2B,0x00,Read,ACK
10.524807833333334,61,0x2B,0x00,Read,ACK
10.524831499999999,61,0x2B,0x00,Read,ACK
10.524855166666667,61,0x2B,0x00,Read,ACK
10.524878833333334,61,0x2B,0x00,Read,ACK
10.524902500000000,61,0x2B,0x00,Read,ACK
10.524926166666667,61,0x2B,0x00,Read,ACK
10.524949833333332,61,0x2B,0x00,Read,ACK
10.524973500000000,61,0x2B,0x00,Read,ACK
10.524997166666667,61,0x2B,0x00,Read,ACK
10.525020749999999,61,0x2B,0x00,Read,ACK
10.525044416666667,61,0x2B,0x00,Read,ACK
10.525068083333334,61,0x2B,0x00,Read,ACK
10.525091750000000,61,0x2B,0x00,Read,ACK
10.525115416666667,61,0x2B,0x00,Read,NAK
10.532016166666667,62,0x2B,0x1E,Read,ACK
10.532039833333334,62,0x2B,0x00,Read,ACK
10.532063500000000,62,0x2B,0x5D,Read,ACK
10.532087166666667,62,0x2B,0x08,Read,ACK
10.532110916666667,62,0x2B,0x62,Read,ACK
10.532134500000000,62,0x2B,0x16,Read,ACK
10.532158166666667,62,0x2B,0xEB,Read,ACK
10.532181833333333,62,0x2B,0x30,Read,ACK
10.532205500000000,62,0x2B,0x7F,Read,ACK
10.532229083333334,62,0x2B,0x00,Read,ACK
10.532252750000000,62,0x2B,0x00,Read,ACK
10.532276416666667,62,0x2B,0x00,Read,ACK
10.532299999999999,62,0x2B,0x00,Read,ACK
10.532323666666667,62,0x2B,0x00,Read,ACK
10.532347333333334,62,0x2B,0x00,Read,ACK
10.532370999999999,62,0x2B,0x00,Read,ACK
10.532394666666667,62,0x2B,0x00,Read,ACK
10.532418333333334,62,0x2B,0x00,Read,ACK
10.532442000000000,62,0x2B,0x00,Read,ACK
10.532465583333334,62,0x2B,0x00,Read,ACK
10.532489249999999,62,0x2B,0x00,Read,ACK
10.532512916666667,62,0x2B,0x00,Read,ACK
10.532536583333334,62,0x2B,0x00,Read,ACK
10.532560250000000,62,0x2B,0x00,Read,ACK
10.532583833333334,62,0x2B,0x00,Read,ACK
10.532607499999999,62,0x2B,0x00,Read,ACK
10.532631166666667,62,0x2B,0x00,Read,ACK
10.532654833333334,62,0x2B,0x00,Read,ACK
10.532678499999999,62,0x2B,0x00,Read,ACK
10.532702166666667,62,0x2B,0x00,Read,NAK
10.539626500000001,63,0x2B,0x1E,Read,ACK
10.539650083333333,63,0x2B,0x00,Read,ACK
10.539673666666667,63,0x2B,0x5D,Read,ACK
10.539697333333333,63,0x2B,0x08,Read,ACK
10.539721000000000,63,0x2B,0x62,Read,ACK
10.539744666666667,63,0x2B,0x1F,Read,ACK
10.539768250000000,63,0x2B,0xED,Read,ACK
10.539791833333334,63,0x2B,0x30,Read,ACK
10.539815416666666,63,0x2B,0x7F,Read,ACK
10.539839083333334,63,0x2B,0x00,Read,ACK
10.539862749999999,63,0x2B,0x00,Read,ACK
10.539886333333333,63,0x2B,0x00,Read,ACK
10.539910000000001,63,0x2B,0x00,Read,ACK
10.539933583333333,63,0x2B,0x00,Read,ACK
10.539957250000000,63,0x2B,0x00,Read,ACK
10.539980916666666,63,0x2B,0x00,Read,ACK
10.540004500000000,63,0x2B,0x00,Read,ACK
10.540028166666668,63,0x2B,0x00,Read,ACK
10.540051750000000,63,0x2B,0x00,Read,ACK
10.540075333333334,63,0x2B,0x00,Read,ACK
10.540099000000000,63,0x2B,0x00,Read,ACK
10.540122666666667,63,0x2B,0x00,Read,ACK
10.540146249999999,63,0x2B,0x00,Read,ACK
10.540169833333334,63,0x2B,0x00,Read,ACK
10.540193416666666,63,0x2B,0x00,Read,ACK
10.540217083333333,63,0x2B,0x00,Read,ACK
10.540240750000001,63,0x2B,0x00,Read,ACK
10.540264333333333,63,0x2B,0x00,Read,ACK
10.540288000000000,63,0x2B,0x00,Read,ACK
10.540311583333333,63,0x2B,0x00,Read,NAK
10.547195416666666,64,0x2B,0x1E,Read,ACK
10.547219083333333,64,0x2B,0x00,Read,ACK
10.547242666666667,64,0x2B,0x5D,Read,ACK
10.547266333333333,64,0x2B,0x08,Read,ACK
10.547290000000000,64,0x2B,0x62,Read,ACK
10.547313583333333,64,0x2B,0x26,Read,ACK
10.547337250000000,64,0x2B,0xEF,Read,ACK
10.547360833333334,64,0x2B,0x30,Read,ACK
10.547384416666667,64,0x2B,0x7F,Read,ACK
10.547408083333334,64,0x2B,0x00,Read,ACK
10.547431749999999,64,0x2B,0x00,Read,ACK
10.547455416666667,64,0x2B,0x00,Read,ACK
10.547478999999999,64,0x2B,0x00,Read,ACK
10.547502666666666,64,0x2B,0x00,Read,ACK
10.547526250000001,64,0x2B,0x00,Read,ACK
10.547549999999999,64,0x2B,0x00,Read,ACK
10.547573583333334,64,0x2B,0x00,Read,ACK
10.547597250000001,64,0x2B,0x00,Read,ACK
10.547620833333333,64,0x2B,0x00,Read,ACK
10.547644500000001,64,0x2B,0x00,Read,ACK
10.547668166666666,64,0x2B,0x00,Read,ACK
10.547691750000000,64,0x2B,0x00,Read,ACK
10.547715416666666,64,0x2B,0x00,Read,ACK
10.547739000000000,64,0x2B,0x00,Read,ACK
10.547762666666667,64,0x2B,0x00,Read,ACK
10.547786333333333,64,0x2B,0x00,Read,ACK
10.547810000000000,64,0x2B,0x00,Read,ACK
10.547833666666667,64,0x2B,0x00,Read,ACK
10.547857250000000,64,0x2B,0x00,Read,ACK
10.547880916666667,64,0x2B,0x00,Read,NAK
10.554755249999999,65,0x2B,0x1E,Read,ACK
10.554778916666667,65,0x2B,0x00,Read,ACK
10.554802499999999,65,0x2B,0x5D,Read,ACK
10.554826083333333,65,0x2B,0x08,Read,ACK
10.554849750000001,65,0x2B,0x62,Read,ACK
10.554873333333333,65,0x2B,0x2B,Read,ACK
10.554897000000000,65,0x2B,0xF0,Read,ACK
10.554920583333333,65,0x2B,0x30,Read,ACK
10.554944250000000,65,0x2B,0x7F,Read,ACK
10.554967833333333,65,0x2B,0x00,Read,ACK
10.554991583333333,65,0x2B,0x00,Read,ACK
10.555015166666667,65,0x2B,0x00,Read,ACK
10.555038833333333,65,0x2B,0x00,Read,ACK
10.555062416666667,65,0x2B,0x00,Read,ACK
10.555086083333334,65,0x2B,0x00,Read,ACK
10.555109750000000,65,0x2B,0x00,Read,ACK
10.555133333333334,65,0x2B,0x00,Read,ACK
10.555156999999999,65,0x2B,0x00,Read,ACK
10.555180583333334,65,0x2B,0x00,Read,ACK
10.555204249999999,65,0x2B,0x00,Read,ACK
10.555227916666666,65,0x2B,0x00,Read,ACK
10.555251583333334,65,0x2B,0x00,Read,ACK
10.555275249999999,65,0x2B,0x00,Read,ACK
10.555298916666667,65,0x2B,0x00,Read,ACK
10.555322583333334,65,0x2B,0x00,Read,ACK
10.555346249999999,65,0x2B,0x00,Read,ACK
10.555369916666667,65,0x2B,0x00,Read,ACK
10.555393499999999,65,0x2B,0x00,Read,ACK
10.555417166666667,65,0x2B,0x00,Read,ACK
10.555440750000001,65,0x2B,0x00,Read,NAK
10.562377916666666,66,0x2B,0x1E,Read,ACK
10.562401583333333,66,0x2B,0x00,Read,ACK
10.562425166666667,66,0x2B,0x5D,Read,ACK
10.562448833333333,66,0x2B,0x08,Read,ACK
10.562472500000000,66,0x2B,0x62,Read,ACK
10.562496083333333,66,0x2B,0x2E,Read,ACK
10.562519750000000,66,0x2B,0xF0,Read,ACK
10.562543416666667,66,0x2B,0x30,Read,ACK
10.562567083333333,66,0x2B,0x7F,Read,ACK
10.562590666666667,66,0x2B,0x00,Read,ACK
10.562614249999999,66,0x2B,0x00,Read,ACK
10.562637916666667,66,0x2B,0x00,Read,ACK
10.562661583333334,66,0x2B,0x00,Read,ACK
10.562685249999999,66,0x2B,0x00,Read,ACK
10.562708916666667,66,0x2B,0x00,Read,ACK
10.562732583333334,66,0x2B,0x00,Read,ACK
10.562756166666667,66,0x2B,0x00,Read,ACK
10.562779833333334,66,0x2B,0x00,Read,ACK
10.562803499999999,66,0x2B,0x00,Read,ACK
10.562827166666667,66,0x2B,0x00,Read,ACK
10.562850833333334,66,0x2B,0x00,Read,ACK
10.562874416666666,66,0x2B,0x00,Read,ACK
10.562898083333334,66,0x2B,0x00,Read,ACK
10.562921749999999,66,0x2B,0x00,Read,ACK
10.562945416666667,66,0x2B,0x00,Read,ACK
10.562969083333334,66,0x2B,0x00,Read,ACK
10.562992666666666,66,0x2B,0x00,Read,ACK
10.563016333333334,66,0x2B,0x00,Read,ACK
10.563040000000001,66,0x2B,0x00,Read,ACK
10.563063666666666,66,0x2B,0x00,Read,NAK
10.569939666666667,67,0x2B,0x1E,Read,ACK
10.569963333333334,67,0x2B,0x00,Read,ACK
10.569986916666666,67,0x2B,0x5D,Read,ACK
10.570010583333334,67,0x2B,0x08,Read,ACK
10.570034250000001,67,0x2B,0x62,Read,ACK
10.570057833333333,67,0x2B,0x30,Read,ACK
10.570081500000001,67,0x2B,0xEF,Read,ACK
10.570105083333333,67,0x2B,0x30,Read,ACK
10.570128750000000,67,0x2B,0x7F,Read,ACK
10.570152333333333,67,0x2B,0x00,Read,ACK
10.570176000000000,67,0x2B,0x00,Read,ACK
10.570199583333334,67,0x2B,0x00,Read,ACK
10.570223250000000,67,0x2B,0x00,Read,ACK
10.570246916666667,67,0x2B,0x00,Read,ACK
10.570270583333333,67,0x2B,0x00,Read,ACK
10.570294250000000,67,0x2B,0x00,Read,ACK
10.570318000000000,67,0x2B,0x00,Read,ACK
10.570341666666666,67,0x2B,0x00,Read,ACK
10.570365333333333,67,0x2B,0x00,Read,ACK
10.570388916666667,67,0x2B,0x00,Read,ACK
10.570412583333333,67,0x2B,0x00,Read,ACK
10.570436250000000,67,0x2B,0x00,Read,ACK
10.570459833333333,67,0x2B,0x00,Read,ACK
10.570483500000000,67,0x2B,0x00,Read,ACK
10.570507083333334,67,0x2B,0x00,Read,ACK
10.570530750000000,67,0x2B,0x00,Read,ACK
10.570554416666667,67,0x2B,0x00,Read,ACK
10.570577999999999,67,0x2B,0x00,Read,ACK
10.570601666666667,67,0x2B,0x00,Read,ACK
10.570625333333334,67,0x2B,0x00,Read,NAK
10.577518416666667,68,0x2B,0x1E,Read,ACK
10.577541999999999,68,0x2B,0x00,Read,ACK
10.577565666666667,68,0x2B,0x5D,Read,ACK
10.577589250000001,68,0x2B,0x08,Read,ACK
10.577612916666666,68,0x2B,0x62,Read,ACK
10.577636583333334,68,0x2B,0x31,Read,ACK
10.577660249999999,68,0x2B,0xED,Read,ACK
10.577683916666667,68,0x2B,0x30,Read,ACK
10.577707500000001,68,0x2B,0x7F,Read,ACK
10.577731166666666,68,0x2B,0x00,Read,ACK
10.577754833333334,68,0x2B,0x00,Read,ACK
10.577778500000001,68,0x2B,0x00,Read,ACK
10.577802166666666,68,0x2B,0x00,Read,ACK
10.577825750000001,68,0x2B,0x00,Read,ACK
10.577849416666666,68,0x2B,0x00,Read,ACK
10.577873000000000,68,0x2B,0x00,Read,ACK
10.577896583333333,68,0x2B,0x00,Read,ACK
10.577920250000000,68,0x2B,0x00,Read,ACK
10.577943833333334,68,0x2B,0x00,Read,ACK
10.577967500000000,68,0x2B,0x00,Read,ACK
10.577991083333334,68,0x2B,0x00,Read,ACK
10.578014666666666,68,0x2B,0x00,Read,ACK
10.578038333333334,68,0x2B,0x00,Read,ACK
10.578061916666666,68,0x2B,0x00,Read,ACK
10.578085583333333,68,0x2B,0x00,Read,ACK
10.578109250000001,68,0x2B,0x00,Read,ACK
10.578132916666666,68,0x2B,0x00,Read,ACK
10.578156583333334,68,0x2B,0x00,Read,ACK
10.578180250000001,68,0x2B,0x00,Read,ACK
10.578203833333333,68,0x2B,0x00,Read,NAK
10.585147583333333,69,0x2B,0x1E,Read,ACK
10.585171250000000,69,0x2B,0x00,Read,ACK
10.585194833333333,69,0x2B,0x5D,Read,ACK
10.585218416666667,69,0x2B,0x08,Read,ACK
10.585242083333334,69,0x2B,0x62,Read,ACK
10.585265750000000,69,0x2B,0x33,Read,ACK
10.585289416666667,69,0x2B,0xEC,Read,ACK
10.585312999999999,69,0x2B,0x30,Read,ACK
10.585336666666667,69,0x2B,0x7F,Read,ACK
10.585360250000001,69,0x2B,0x00,Read,ACK
10.585383999999999,69,0x2B,0x00,Read,ACK
10.585407666666667,69,0x2B,0x00,Read,ACK
10.585431249999999,69,0x2B,0x00,Read,ACK
10.585454916666666,69,0x2B,0x00,Read,ACK
10.585478583333334,69,0x2B,0x00,Read,ACK
10.585502249999999,69,0x2B,0x00,Read,ACK
10.585525916666667,69,0x2B,0x00,Read,ACK
10.585549583333334,69,0x2B,0x00,Read,ACK
10.585573166666666,69,0x2B,0x00,Read,ACK
10.585596833333334,69,0x2B,0x00,Read,ACK
10.585620499999999,69,0x2B,0x00,Read,ACK
10.585644250000000,69,0x2B,0x00,Read,ACK
10.585667916666667,69,0x2B,0x00,Read,ACK
10.585691499999999,69,0x2B,0x00,Read,ACK
10.585715250000000,69,0x2B,0x00,Read,ACK
10.585738916666667,69,0x2B,0x00,Read,ACK
10.585762583333333,69,0x2B,0x00,Read,ACK
10.585786250000000,69,0x2B,0x00,Read,ACK
10.585809916666667,69,0x2B,0x00,Read,ACK
10.585833583333333,69,0x2B,0x00,Read,NAK
10.592764750000001,70,0x2B,0x1E,Read,ACK
10.592788333333333,70,0x2B,0x00,Read,ACK
10.592812000000000,70,0x2B,0x5D,Read,ACK
10.592835666666666,70,0x2B,0x08,Read,ACK
10.592859250000000,70,0x2B,0x62,Read,ACK
10.592882916666667,70,0x2B,0x33,Read,ACK
10.592906500000000,70,0x2B,0xEB,Read,ACK
10.592930083333334,70,0x2B,0x30,Read,ACK
10.592953750000000,70,0x2B,0x7F,Read,ACK
10.592977333333334,70,0x2B,0x00,Read,ACK
10.593001083333334,70,0x2B,0x00,Read,ACK
10.593024750000000,70,0x2B,0x00,Read,ACK
10.593048500000000,70,0x2B,0x00,Read,ACK
10.593072166666667,70,0x2B,0x00,Read,ACK
10.593095750000000,70,0x2B,0x00,Read,ACK
10.593119416666667,70,0x2B,0x00,Read,ACK
10.593143083333333,70,0x2B,0x00,Read,ACK
10.593166666666667,70,0x2B,0x00,Read,ACK
10.593190333333334,70,0x2B,0x00,Read,ACK
10.593214000000000,70,0x2B,0x00,Read,ACK
10.593237666666667,70,0x2B,0x00,Read,ACK
10.593261333333333,70,0x2B,0x00,Read,ACK
10.593284916666667,70,0x2B,0x00,Read,ACK
10.593308583333334,70,0x2B,0x00,Read,ACK
10.593332250000000,70,0x2B,0x00,Read,ACK
10.593355916666667,70,0x2B,0x00,Read,ACK
10.593379583333334,70,0x2B,0x00,Read,ACK
10.593403250000000,70,0x2B,0x00,Read,ACK
10.593426833333334,70,0x2B,0x00,Read,ACK
10.593450499999999,70,0x2B,0x00,Read,NAK
10.600323333333334,71,0x2B,0x1E,Read,ACK
10.600346916666666,71,0x2B,0x00,Read,ACK
10.600370500000000,71,0x2B,0x5D,Read,ACK
10.600394166666666,71,0x2B,0x08,Read,ACK
10.600417750000000,71,0x2B,0x62,Read,ACK
10.600441416666667,71,0x2B,0x34,Read,ACK
10.600465000000000,71,0x2B,0xEA,Read,ACK
10.600488583333334,71,0x2B,0x30,Read,ACK
10.600512250000000,71,0x2B,0x7F,Read,ACK
10.600535833333334,71,0x2B,0x00,Read,ACK
10.600559499999999,71,0x2B,0x00,Read,ACK
10.600583166666667,71,0x2B,0x00,Read,ACK
10.600606833333334,71,0x2B,0x00,Read,ACK
10.600630499999999,71,0x2B,0x00,Read,ACK
10.600654166666667,71,0x2B,0x00,Read,ACK
10.600677833333334,71,0x2B,0x00,Read,ACK
10.600701500000000,71,0x2B,0x00,Read,ACK
10.600725166666667,71,0x2B,0x00,Read,ACK
10.600748833333334,71,0x2B,0x00,Read,ACK
10.600772416666667,71,0x2B,0x00,Read,ACK
10.600796083333334,71,0x2B,0x00,Read,ACK
10.600819666666666,71,0x2B,0x00,Read,ACK
10.600843250000000,71,0x2B,0x00,Read,ACK
10.600866916666666,71,0x2B,0x00,Read,ACK
10.600890583333333,71,0x2B,0x00,Read,ACK
10.600914166666668,71,0x2B,0x00,Read,ACK
10.600937833333333,71,0x2B,0x00,Read,ACK
10.600961416666667,71,0x2B,0x00,Read,ACK
10.600985000000000,71,0x2B,0x00,Read,ACK
10.601008583333334,71,0x2B,0x00,Read,NAK
10.607998083333333,72,0x2B,0x1E,Read,ACK
10.608021666666666,72,0x2B,0x00,Read,ACK
10.608045333333333,72,0x2B,0x5D,Read,ACK
10.608068916666667,72,0x2B,0x08,Read,ACK
10.608092583333333,72,0x2B,0x62,Read,ACK
10.608116166666667,72,0x2B,0x34,Read,ACK
10.608139833333333,72,0x2B,0xEA,Read,ACK
10.608163416666667,72,0x2B,0x30,Read,ACK
10.608187083333334,72,0x2B,0x7F,Read,ACK
10.608210666666666,72,0x2B,0x00,Read,ACK
10.608234333333334,72,0x2B,0x00,Read,ACK
10.608257999999999,72,0x2B,0x00,Read,ACK
10.608281666666667,72,0x2B,0x00,Read,ACK
10.608305416666667,72,0x2B,0x00,Read,ACK
10.608329083333333,72,0x2B,0x00,Read,ACK
10.608352666666667,72,0x2B,0x00,Read,ACK
10.608376333333334,72,0x2B,0x00,Read,ACK
10.608400083333333,72,0x2B,0x00,Read,ACK
10.608423750000000,72,0x2B,0x00,Read,ACK
10.608447416666667,72,0x2B,0x00,Read,ACK
10.608471083333333,72,0x2B,0x00,Read,ACK
10.608494666666667,72,0x2B,0x00,Read,ACK
10.608518416666668,72,0x2B,0x00,Read,ACK
10.608542083333333,72,0x2B,0x00,Read,ACK
10.608565750000000,72,0x2B,0x00,Read,ACK
10.608589333333333,72,0x2B,0x00,Read,ACK
10.608613000000000,72,0x2B,0x00,Read,ACK
10.608636750000001,72,0x2B,0x00,Read,ACK
10.608660416666666,72,0x2B,0x00,Read,ACK
10.608684083333333,72,0x2B,0x00,Read,NAK
10.615566500000000,73,0x2B,0x1E,Read,ACK
10.615590166666667,73,0x2B,0x00,Read,ACK
10.615613750000000,73,0x2B,0x5D,Read,ACK
10.615637333333334,73,0x2B,0x08,Read,ACK
10.615660999999999,73,0x2B,0x62,Read,ACK
10.615684666666667,73,0x2B,0x35,Read,ACK
10.615708250000001,73,0x2B,0xEA,Read,ACK
10.615731916666666,73,0x2B,0x30,Read,ACK
10.615755500000001,73,0x2B,0x7F,Read,ACK
10.615779166666666,73,0x2B,0x00,Read,ACK
10.615802750000000,73,0x2B,0x00,Read,ACK
10.615826416666666,73,0x2B,0x00,Read,ACK
10.615850083333333,73,0x2B,0x00,Read,ACK
10.615873750000000,73,0x2B,0x00,Read,ACK
10.615897333333333,73,0x2B,0x00,Read,ACK
10.615921000000000,73,0x2B,0x00,Read,ACK
10.615944666666667,73,0x2B,0x00,Read,ACK
10.615968333333333,73,0x2B,0x00,Read,ACK
10.615992000000000,73,0x2B,0x00,Read,ACK
10.616015666666666,73,0x2B,0x00,Read,ACK
10.616039333333333,73,0x2B,0x00,Read,ACK
10.616063000000000,73,0x2B,0x00,Read,ACK
10.616086749999999,73,0x2B,0x00,Read,ACK
10.616110416666666,73,0x2B,0x00,Read,ACK
10.616134166666667,73,0x2B,0x00,Read,ACK
10.616157833333334,73,0x2B,0x00,Read,ACK
10.616181500000000,73,0x2B,0x00,Read,ACK
10.616205250000000,73,0x2B,0x00,Read,ACK
10.616229000000001,73,0x2B,0x00,Read,ACK
10.616252666666666,73,0x2B,0x00,Read,NAK
10.623145333333333,74,0x2B,0x1E,Read,ACK
10.623169000000001,74,0x2B,0x00,Read,ACK
10.623192583333333,74,0x2B,0x5D,Read,ACK
10.623216250000000,74,0x2B,0x08,Read,ACK
10.623239916666666,74,0x2B,0x62,Read,ACK
10.623263583333333,74,0x2B,0x35,Read,ACK
10.623287250000001,74,0x2B,0xEB,Read,ACK
10.623310916666666,74,0x2B,0x30,Read,ACK
10.623334666666667,74,0x2B,0x7F,Read,ACK
10.623358250000001,74,0x2B,0x00,Read,ACK
10.623381999999999,74,0x2B,0x00,Read,ACK
10.623405666666667,74,0x2B,0x00,Read,ACK
10.623429416666667,74,0x2B,0x00,Read,ACK
10.623453166666666,74,0x2B,0x00,Read,ACK
10.623476833333333,74,0x2B,0x00,Read,ACK
10.623500500000000,74,0x2B,0x00,Read,ACK
10.623524249999999,74,0x2B,0x00,Read,ACK
10.623547916666666,74,0x2B,0x00,Read,ACK
10.623571666666667,74,0x2B,0x00,Read,ACK
10.623595333333334,74,0x2B,0x00,Read,ACK
10.623619083333333,74,0x2B,0x00,Read,ACK
10.623642750000000,74,0x2B,0x00,Read,ACK
10.623666500000001,74,0x2B,0x00,Read,ACK
10.623690166666666,74,0x2B,0x00,Read,ACK
10.623713916666667,74,0x2B,0x00,Read,ACK
10.623737583333334,74,0x2B,0x00,Read,ACK
10.623761333333333,74,0x2B,0x00,Read,ACK
10.623785000000000,74,0x2B,0x00,Read,ACK
10.623808750000000,74,0x2B,0x00,Read,ACK
10.623832416666666,74,0x2B,0x00,Read,NAK
10.630759749999999,75,0x2B,0x1E,Read,ACK
10.630783416666667,75,0x2B,0x00,Read,ACK
10.630807083333334,75,0x2B,0x5D,Read,ACK
10.630830666666666,75,0x2B,0x08,Read,ACK
10.630854250000001,75,0x2B,0x62,Read,ACK
10.630877916666666,75,0x2B,0x35,Read,ACK
10.630901500000000,75,0x2B,0xEB,Read,ACK
10.630925166666668,75,0x2B,0x30,Read,ACK
10.630948750000000,75,0x2B,0x7F,Read,ACK
10.630972416666667,75,0x2B,0x00,Read,ACK
10.630996083333333,75,0x2B,0x00,Read,ACK
10.631019833333333,75,0x2B,0x00,Read,ACK
10.631043416666667,75,0x2B,0x00,Read,ACK
10.631067083333333,75,0x2B,0x00,Read,ACK
10.631090750000000,75,0x2B,0x00,Read,ACK
10.631114500000001,75,0x2B,0x00,Read,ACK
10.631138166666666,75,0x2B,0x00,Read,ACK
10.631161750000000,75,0x2B,0x00,Read,ACK
10.631185416666666,75,0x2B,0x00,Read,ACK
10.631209083333333,75,0x2B,0x00,Read,ACK
10.631232833333334,75,0x2B,0x00,Read,ACK
10.631256499999999,75,0x2B,0x00,Read,ACK
10.631280166666667,75,0x2B,0x00,Read,ACK
10.631303833333334,75,0x2B,0x00,Read,ACK
10.631327499999999,75,0x2B,0x00,Read,ACK
10.631351166666667,75,0x2B,0x00,Read,ACK
10.631374833333334,75,0x2B,0x00,Read,ACK
10.631398500000000,75,0x2B,0x00,Read,ACK
10.631422166666667,75,0x2B,0x00,Read,ACK
10.631445833333334,75,0x2B,0x00,Read,NAK
10.638237083333333,76,0x2B,0x1E,Read,ACK
10.638260666666667,76,0x2B,0x00,Read,ACK
10.638284333333333,76,0x2B,0x5D,Read,ACK
10.638307916666667,76,0x2B,0x08,Read,ACK
10.638331500000000,76,0x2B,0x62,Read,ACK
10.638355166666667,76,0x2B,0x35,Read,ACK
10.638378749999999,76,0x2B,0xEB,Read,ACK
10.638402416666667,76,0x2B,0x30,Read,ACK
10.638426000000001,76,0x2B,0x7F,Read,ACK
10.638449666666666,76,0x2B,0x00,Read,ACK
10.638473250000001,76,0x2B,0x00,Read,ACK
10.638496916666666,76,0x2B,0x00,Read,ACK
10.638520583333333,76,0x2B,0x00,Read,ACK
10.638544166666666,76,0x2B,0x00,Read,ACK
10.638567833333333,76,0x2B,0x00,Read,ACK
10.638591416666667,76,0x2B,0x00,Read,ACK
10.638615083333333,76,0x2B,0x00,Read,ACK
10.638638666666667,76,0x2B,0x00,Read,ACK
10.638662333333333,76,0x2B,0x00,Read,ACK
10.638685916666667,76,0x2B,0x00,Read,ACK
10.638709499999999,76,0x2B,0x00,Read,ACK
10.638733166666666,76,0x2B,0x00,Read,ACK
10.638756833333334,76,0x2B,0x00,Read,ACK
10.638780499999999,76,0x2B,0x00,Read,ACK
10.638804166666667,76,0x2B,0x00,Read,ACK
10.638827833333334,76,0x2B,0x00,Read,ACK
10.638851499999999,76,0x2B,0x00,Read,ACK
10.638875166666667,76,0x2B,0x00,Read,ACK
10.638898749999999,76,0x2B,0x00,Read,ACK
10.638922416666666,76,0x2B,0x00,Read,NAK
10.645901583333334,77,0x2B,0x1E,Read,ACK
10.645925249999999,77,0x2B,0x00,Read,ACK
10.645948916666667,77,0x2B,0x5D,Read,ACK
10.645972583333334,77,0x2B,0x08,Read,ACK
10.645996166666666,77,0x2B,0x62,Read,ACK
10.646019833333334,77,0x2B,0x35,Read,ACK
10.646043416666666,77,0x2B,0xEB,Read,ACK
10.646067083333334,77,0x2B,0x30,Read,ACK
10.646090750000001,77,0x2B,0x7F,Read,ACK
10.646114416666666,77,0x2B,0x00,Read,ACK
10.646138083333334,77,0x2B,0x00,Read,ACK
10.646161749999999,77,0x2B,0x00,Read,ACK
10.646185416666667,77,0x2B,0x00,Read,ACK
10.646209083333334,77,0x2B,0x00,Read,ACK
10.646232749999999,77,0x2B,0x00,Read,ACK
10.646256416666667,77,0x2B,0x00,Read,ACK
10.646280000000001,77,0x2B,0x00,Read,ACK
10.646303666666666,77,0x2B,0x00,Read,ACK
10.646327416666667,77,0x2B,0x00,Read,ACK
10.646350999999999,77,0x2B,0x00,Read,ACK
10.646374666666667,77,0x2B,0x00,Read,ACK
10.646398250000001,77,0x2B,0x00,Read,ACK
10.646421916666666,77,0x2B,0x00,Read,ACK
10.646445583333334,77,0x2B,0x00,Read,ACK
10.646469250000001,77,0x2B,0x00,Read,ACK
10.646492833333333,77,0x2B,0x00,Read,ACK
10.646516500000001,77,0x2B,0x00,Read,ACK
10.646540166666666,77,0x2B,0x00,Read,ACK
10.646563833333333,77,0x2B,0x00,Read,ACK
10.646587500000001,77,0x2B,0x00,Read,NAK
10.653437000000000,78,0x2B,0x1E,Read,ACK
10.653460666666666,78,0x2B,0x00,Read,ACK
10.653484333333333,78,0x2B,0x5D,Read,ACK
10.653508000000000,78,0x2B,0x08,Read,ACK
10.653531666666666,78,0x2B,0x62,Read,ACK
10.653555333333333,78,0x2B,0x35,Read,ACK
10.653578833333333,78,0x2B,0xEB,Read,ACK
10.653602416666667,78,0x2B,0x30,Read,ACK
10.653625916666666,78,0x2B,0x7F,Read,ACK
10.653649500000000,78,0x2B,0x00,Read,ACK
10.653673083333333,78,0x2B,0x00,Read,ACK
10.653696666666667,78,0x2B,0x00,Read,ACK
10.653720333333334,78,0x2B,0x00,Read,ACK
10.653743916666667,78,0x2B,0x00,Read,ACK
10.653767583333334,78,0x2B,0x00,Read,ACK
10.653791249999999,78,0x2B,0x00,Read,ACK
10.653814833333334,78,0x2B,0x00,Read,ACK
10.653838500000001,78,0x2B,0x00,Read,ACK
10.653862166666666,78,0x2B,0x00,Read,ACK
10.653885833333334,78,0x2B,0x00,Read,ACK
10.653909416666666,78,0x2B,0x00,Read,ACK
10.653933166666667,78,0x2B,0x00,Read,ACK
10.653956833333334,78,0x2B,0x00,Read,ACK
10.653980499999999,78,0x2B,0x00,Read,ACK
10.654004166666667,78,0x2B,0x00,Read,ACK
10.654027833333334,78,0x2B,0x00,Read,ACK
10.654051416666666,78,0x2B,0x00,Read,ACK
10.654075083333334,78,0x2B,0x00,Read,ACK
10.654098666666666,78,0x2B,0x00,Read,ACK
10.654122333333333,78,0x2B,0x00,Read,NAK
10.661060666666666,79,0x2B,0x1E,Read,ACK
10.661084333333333,79,0x2B,0x00,Read,ACK
10.661107916666667,79,0x2B,0x5D,Read,ACK
10.661131500000000,79,0x2B,0x08,Read,ACK
10.661155166666667,79,0x2B,0x62,Read,ACK
10.661178749999999,79,0x2B,0x35,Read,ACK
10.661202333333334,79,0x2B,0xEB,Read,ACK
10.661225999999999,79,0x2B,0x30,Read,ACK
10.661249583333333,79,0x2B,0x7F,Read,ACK
10.661273250000001,79,0x2B,0x00,Read,ACK
10.661296833333333,79,0x2B,0x00,Read,ACK
10.661320416666667,79,0x2B,0x00,Read,ACK
10.661344083333333,79,0x2B,0x00,Read,ACK
10.661367750000000,79,0x2B,0x00,Read,ACK
10.661391416666667,79,0x2B,0x00,Read,ACK
10.661415166666666,79,0x2B,0x00,Read,ACK
10.661438750000000,79,0x2B,0x00,Read,ACK
10.661462416666666,79,0x2B,0x00,Read,ACK
10.661486083333333,79,0x2B,0x00,Read,ACK
10.661509750000000,79,0x2B,0x00,Read,ACK
10.661533416666666,79,0x2B,0x00,Read,ACK
10.661557083333333,79,0x2B,0x00,Read,ACK
10.661580666666667,79,0x2B,0x00,Read,ACK
10.661604333333333,79,0x2B,0x00,Read,ACK
10.661627916666667,79,0x2B,0x00,Read,ACK
10.661651583333333,79,0x2B,0x00,Read,ACK
10.661675166666667,79,0x2B,0x00,Read,ACK
10.661698833333332,79,0x2B,0x00,Read,ACK
10.661722416666667,79,0x2B,0x00,Read,ACK
10.661746083333334,79,0x2B,0x00,Read,NAK
10.668595333333334,80,0x2B,0x1E,Read,ACK
10.668619000000000,80,0x2B,0x00,Read,ACK
10.668642666666667,80,0x2B,0x5D,Read,ACK
10.668666333333332,80,0x2B,0x08,Read,ACK
10.668690000000000,80,0x2B,0x62,Read,ACK
10.668713666666667,80,0x2B,0x35,Read,ACK
10.668737250000000,80,0x2B,0xEB,Read,ACK
10.668760916666667,80,0x2B,0x30,Read,ACK
10.668784583333334,80,0x2B,0x7F,Read,ACK
10.668808250000000,80,0x2B,0x00,Read,ACK
10.668831833333334,80,0x2B,0x00,Read,ACK
10.668855499999999,80,0x2B,0x00,Read,ACK
10.668879166666667,80,0x2B,0x00,Read,ACK
10.668902833333334,80,0x2B,0x00,Read,ACK
10.668926500000000,80,0x2B,0x00,Read,ACK
10.668950166666667,80,0x2B,0x00,Read,ACK
10.668973749999999,80,0x2B,0x00,Read,ACK
10.668997416666667,80,0x2B,0x00,Read,ACK
10.669021083333334,80,0x2B,0x00,Read,ACK
10.669044749999999,80,0x2B,0x00,Read,ACK
10.669068416666667,80,0x2B,0x00,Read,ACK
10.669092083333334,80,0x2B,0x00,Read,ACK
10.669115750000000,80,0x2B,0x00,Read,ACK
10.669139416666667,80,0x2B,0x00,Read,ACK
10.669163083333334,80,0x2B,0x00,Read,ACK
10.669186666666667,80,0x2B,0x00,Read,ACK
10.669210333333334,80,0x2B,0x00,Read,ACK
10.669233999999999,80,0x2B,0x00,Read,ACK
10.669257666666667,80,0x2B,0x00,Read,ACK
10.669281333333334,80,0x2B,0x00,Read,NAK
10.676270333333333,81,0x2B,0x1E,Read,ACK
10.676294000000000,81,0x2B,0x00,Read,ACK
10.676317583333333,81,0x2B,0x5D,Read,ACK
10.676341250000000,81,0x2B,0x08,Read,ACK
10.676364916666667,81,0x2B,0x62,Read,ACK
10.676388583333333,81,0x2B,0x35,Read,ACK
10.676412166666667,81,0x2B,0xEC,Read,ACK
10.676435750000000,81,0x2B,0x30,Read,ACK
10.676459416666667,81,0x2B,0x7F,Read,ACK
10.676483083333334,81,0x2B,0x00,Read,ACK
10.676506666666667,81,0x2B,0x00,Read,ACK
10.676530250000001,81,0x2B,0x00,Read,ACK
10.676553916666666,81,0x2B,0x00,Read,ACK
10.676577500000000,81,0x2B,0x00,Read,ACK
10.676601166666666,81,0x2B,0x00,Read,ACK
10.676624833333333,81,0x2B,0x00,Read,ACK
10.676648416666668,81,0x2B,0x00,Read,ACK
10.676672083333333,81,0x2B,0x00,Read,ACK
10.676695666666667,81,0x2B,0x00,Read,ACK
10.676719333333333,81,0x2B,0x00,Read,ACK
10.676743000000000,81,0x2B,0x00,Read,ACK
10.676766583333333,81,0x2B,0x00,Read,ACK
10.676790166666667,81,0x2B,0x00,Read,ACK
10.676813833333334,81,0x2B,0x00,Read,ACK
10.676837416666666,81,0x2B,0x00,Read,ACK
10.676861083333334,81,0x2B,0x00,Read,ACK
10.676884749999999,81,0x2B,0x00,Read,ACK
10.676908333333333,81,0x2B,0x00,Read,ACK
10.676931916666666,81,0x2B,0x00,Read,ACK
10.676955583333333,81,0x2B,0x00,Read,NAK
10.683829250000000,82,0x2B,0x1E,Read,ACK
10.683852833333333,82,0x2B,0x00,Read,ACK
10.683876416666667,82,0x2B,0x5D,Read,ACK
10.683900083333333,82,0x2B,0x08,Read,ACK
10.683923750000000,82,0x2B,0x62,Read,ACK
10.683947416666667,82,0x2B,0x36,Read,ACK
10.683971000000000,82,0x2B,0xEC,Read,ACK
10.683994583333334,82,0x2B,0x30,Read,ACK
10.684018249999999,82,0x2B,0x7F,Read,ACK
10.684041916666667,82,0x2B,0x00,Read,ACK
10.684065583333334,82,0x2B,0x00,Read,ACK
10.684089166666666,82,0x2B,0x00,Read,ACK
10.684112833333334,82,0x2B,0x00,Read,ACK
10.684136416666666,82,0x2B,0x00,Read,ACK
10.684160083333333,82,0x2B,0x00,Read,ACK
10.684183750000001,82,0x2B,0x00,Read,ACK
10.684207333333333,82,0x2B,0x00,Read,ACK
10.684230916666667,82,0x2B,0x00,Read,ACK
10.684254583333333,82,0x2B,0x00,Read,ACK
10.684278250000000,82,0x2B,0x00,Read,ACK
10.684301916666668,82,0x2B,0x00,Read,ACK
10.684325500000000,82,0x2B,0x00,Read,ACK
10.684349083333334,82,0x2B,0x00,Read,ACK
10.684372750000000,82,0x2B,0x00,Read,ACK
10.684396416666667,82,0x2B,0x00,Read,ACK
10.684420083333332,82,0x2B,0x00,Read,ACK
10.684443666666667,82,0x2B,0x00,Read,ACK
10.684467333333334,82,0x2B,0x00,Read,ACK
10.684490916666666,82,0x2B,0x00,Read,ACK
10.684514583333334,82,0x2B,0x00,Read,NAK
10.691413000000001,83,0x2B,0x1E,Read,ACK
10.691436583333333,83,0x2B,0x00,Read,ACK
10.691460166666667,83,0x2B,0x5D,Read,ACK
10.691483833333333,83,0x2B,0x08,Read,ACK
10.691507500000000,83,0x2B,0x62,Read,ACK
10.691531166666667,83,0x2B,0x36,Read,ACK
10.691554833333333,83,0x2B,0xEC,Read,ACK
10.691578500000000,83,0x2B,0x30,Read,ACK
10.691602166666666,83,0x2B,0x7F,Read,ACK
10.691625833333333,83,0x2B,0x00,Read,ACK
10.691649500000000,83,0x2B,0x00,Read,ACK
10.691673166666666,83,0x2B,0x00,Read,ACK
10.691696833333333,83,0x2B,0x00,Read,ACK
10.691720500000001,83,0x2B,0x00,Read,ACK
10.691744166666666,83,0x2B,0x00,Read,ACK
10.691767750000000,83,0x2B,0x00,Read,ACK
10.691791416666666,83,0x2B,0x00,Read,ACK
10.691815000000000,83,0x2B,0x00,Read,ACK
10.691838666666667,83,0x2B,0x00,Read,ACK
10.691862250000000,83,0x2B,0x00,Read,ACK
10.691885916666667,83,0x2B,0x00,Read,ACK
10.691909583333333,83,0x2B,0x00,Read,ACK
10.691933250000000,83,0x2B,0x00,Read,ACK
10.691957000000000,83,0x2B,0x00,Read,ACK
10.691980583333333,83,0x2B,0x00,Read,ACK
10.692004250000000,83,0x2B,0x00,Read,ACK
10.692027916666667,83,0x2B,0x00,Read,ACK
10.692051583333333,83,0x2B,0x00,Read,ACK
10.692075250000000,83,0x2B,0x00,Read,ACK
10.692098916666666,83,0x2B,0x00,Read,NAK
10.698997416666666,84,0x2B,0x1E,Read,ACK
10.699021000000000,84,0x2B,0x00,Read,ACK
10.699044583333333,84,0x2B,0x5D,Read,ACK
10.699068250000000,84,0x2B,0x08,Read,ACK
10.699091916666667,84,0x2B,0x62,Read,ACK
10.699115583333333,84,0x2B,0x37,Read,ACK
10.699139250000000,84,0x2B,0xEC,Read,ACK
10.699162833333334,84,0x2B,0x30,Read,ACK
10.699186500000000,84,0x2B,0x7F,Read,ACK
10.699210083333334,84,0x2B,0x00,Read,ACK
10.699233749999999,84,0x2B,0x00,Read,ACK
10.699257333333334,84,0x2B,0x00,Read,ACK
10.699280916666666,84,0x2B,0x00,Read,ACK
10.699304583333333,84,0x2B,0x00,Read,ACK
10.699328250000001,84,0x2B,0x00,Read,ACK
10.699351833333333,84,0x2B,0x00,Read,ACK
10.699375416666667,84,0x2B,0x00,Read,ACK
10.699399083333333,84,0x2B,0x00,Read,ACK
10.699422666666667,84,0x2B,0x00,Read,ACK
10.699446333333333,84,0x2B,0x00,Read,ACK
10.699469916666667,84,0x2B,0x00,Read,ACK
10.699493500000001,84,0x2B,0x00,Read,ACK
10.699517166666666,84,0x2B,0x00,Read,ACK
10.699540750000001,84,0x2B,0x00,Read,ACK
10.699564416666666,84,0x2B,0x00,Read,ACK
10.699588083333333,84,0x2B,0x00,Read,ACK
10.699611750000001,84,0x2B,0x00,Read,ACK
10.699635416666666,84,0x2B,0x00,Read,ACK
10.699659000000000,84,0x2B,0x00,Read,ACK
10.699682666666666,84,0x2B,0x00,Read,NAK
10.706573916666667,85,0x2B,0x1E,Read,ACK
10.706597500000001,85,0x2B,0x00,Read,ACK
10.706621166666666,85,0x2B,0x5D,Read,ACK
10.706644833333334,85,0x2B,0x08,Read,ACK
10.706668499999999,85,0x2B,0x62,Read,ACK
10.706692166666667,85,0x2B,0x37,Read,ACK
10.706715916666667,85,0x2B,0xEC,Read,ACK
10.706739499999999,85,0x2B,0x30,Read,ACK
10.706763166666667,85,0x2B,0x7F,Read,ACK
10.706786749999999,85,0x2B,0x00,Read,ACK
10.706810416666666,85,0x2B,0x00,Read,ACK
10.706834000000001,85,0x2B,0x00,Read,ACK
10.706857666666666,85,0x2B,0x00,Read,ACK
10.706881250000000,85,0x2B,0x00,Read,ACK
10.706905000000001,85,0x2B,0x00,Read,ACK
10.706928666666666,85,0x2B,0x00,Read,ACK
10.706952333333334,85,0x2B,0x00,Read,ACK
10.706975999999999,85,0x2B,0x00,Read,ACK
10.706999666666666,85,0x2B,0x00,Read,ACK
10.707023416666667,85,0x2B,0x00,Read,ACK
10.707047083333334,85,0x2B,0x00,Read,ACK
10.707070750000000,85,0x2B,0x00,Read,ACK
10.707094416666667,85,0x2B,0x00,Read,ACK
10.707118166666667,85,0x2B,0x00,Read,ACK
10.707141750000000,85,0x2B,0x00,Read,ACK
10.707165416666667,85,0x2B,0x00,Read,ACK
10.707189083333333,85,0x2B,0x00,Read,ACK
10.707212666666667,85,0x2B,0x00,Read,ACK
10.707236333333332,85,0x2B,0x00,Read,ACK
10.707260000000000,85,0x2B,0x00,Read,NAK
10.714125916666667,86,0x2B,0x1E,Read,ACK
10.714149500000000,86,0x2B,0x00,Read,ACK
10.714173166666667,86,0x2B,0x5D,Read,ACK
10.714196833333334,86,0x2B,0x08,Read,ACK
10.714220500000000,86,0x2B,0x62,Read,ACK
10.714244083333334,86,0x2B,0x38,Read,ACK
10.714267749999999,86,0x2B,0xEB,Read,ACK
10.714291333333334,86,0x2B,0x30,Read,ACK
10.714314999999999,86,0x2B,0x7F,Read,ACK
10.714338666666666,86,0x2B,0x00,Read,ACK
10.714362333333334,86,0x2B,0x00,Read,ACK
10.714385916666666,86,0x2B,0x00,Read,ACK
10.714409583333333,86,0x2B,0x00,Read,ACK
10.714433250000001,86,0x2B,0x00,Read,ACK
10.714456916666666,86,0x2B,0x00,Read,ACK
10.714480583333334,86,0x2B,0x00,Read,ACK
10.714504249999999,86,0x2B,0x00,Read,ACK
10.714527833333333,86,0x2B,0x00,Read,ACK
10.714551500000001,86,0x2B,0x00,Read,ACK
10.714575166666666,86,0x2B,0x00,Read,ACK
10.714598916666667,86,0x2B,0x00,Read,ACK
10.714622500000001,86,0x2B,0x00,Read,ACK
10.714646166666666,86,0x2B,0x00,Read,ACK
10.714669833333334,86,0x2B,0x00,Read,ACK
10.714693499999999,86,0x2B,0x00,Read,ACK
10.714717166666667,86,0x2B,0x00,Read,ACK
10.714740750000001,86,0x2B,0x00,Read,ACK
10.714764333333333,86,0x2B,0x00,Read,ACK
10.714788000000000,86,0x2B,0x00,Read,ACK
10.714811666666666,86,0x2B,0x00,Read,NAK
10.721702416666666,87,0x2B,0x1E,Read,ACK
10.721726000000000,87,0x2B,0x00,Read,ACK
10.721749666666666,87,0x2B,0x5D,Read,ACK
10.721773333333333,87,0x2B,0x08,Read,ACK
10.721797000000000,87,0x2B,0x62,Read,ACK
10.721820583333333,87,0x2B,0x39,Read,ACK
10.721844250000000,87,0x2B,0xEB,Read,ACK
10.721867833333333,87,0x2B,0x30,Read,ACK
10.721891500000000,87,0x2B,0x7F,Read,ACK
10.721915250000000,87,0x2B,0x00,Read,ACK
10.721938833333333,87,0x2B,0x00,Read,ACK
10.721962416666667,87,0x2B,0x00,Read,ACK
10.721986083333332,87,0x2B,0x00,Read,ACK
10.722009833333333,87,0x2B,0x00,Read,ACK
10.722033500000000,87,0x2B,0x00,Read,ACK
10.722057083333333,87,0x2B,0x00,Read,ACK
10.722080750000000,87,0x2B,0x00,Read,ACK
10.722104333333334,87,0x2B,0x00,Read,ACK
10.722128000000000,87,0x2B,0x00,Read,ACK
10.722151750000000,87,0x2B,0x00,Read,ACK
10.722175333333333,87,0x2B,0x00,Read,ACK
10.722199000000000,87,0x2B,0x00,Read,ACK
10.722222583333334,87,0x2B,0x00,Read,ACK
10.722246250000000,87,0x2B,0x00,Read,ACK
10.722270000000000,87,0x2B,0x00,Read,ACK
10.722293583333334,87,0x2B,0x00,Read,ACK
10.722317250000000,87,0x2B,0x00,Read,ACK
10.722340833333334,87,0x2B,0x00,Read,ACK
10.722364499999999,87,0x2B,0x00,Read,ACK
10.722388166666667,87,0x2B,0x00,Read,NAK
10.729297666666668,88,0x2B,0x1E,Read,ACK
10.729321250000000,88,0x2B,0x00,Read,ACK
10.729344916666667,88,0x2B,0x5D,Read,ACK
10.729368583333333,88,0x2B,0x08,Read,ACK
10.729392250000000,88,0x2B,0x62,Read,ACK
10.729415833333332,88,0x2B,0x3B,Read,ACK
10.729439500000000,88,0x2B,0xEB,Read,ACK
10.729463166666667,88,0x2B,0x30,Read,ACK
10.729486833333333,88,0x2B,0x7F,Read,ACK
10.729510416666667,88,0x2B,0x00,Read,ACK
10.729534083333334,88,0x2B,0x00,Read,ACK
10.729557750000000,88,0x2B,0x00,Read,ACK
10.729581416666667,88,0x2B,0x00,Read,ACK
10.729605166666667,88,0x2B,0x00,Read,ACK
10.729628750000000,88,0x2B,0x00,Read,ACK
10.729652416666667,88,0x2B,0x00,Read,ACK
10.729676083333333,88,0x2B,0x00,Read,ACK
10.729699833333333,88,0x2B,0x00,Read,ACK
10.729723500000000,88,0x2B,0x00,Read,ACK
10.729747250000001,88,0x2B,0x00,Read,ACK
10.729771000000000,88,0x2B,0x00,Read,ACK
10.729794750000000,88,0x2B,0x00,Read,ACK
10.729818416666667,88,0x2B,0x00,Read,ACK
10.729842000000000,88,0x2B,0x00,Read,ACK
10.729865666666667,88,0x2B,0x00,Read,ACK
10.729889333333333,88,0x2B,0x00,Read,ACK
10.729912916666667,88,0x2B,0x00,Read,ACK
10.729936666666667,88,0x2B,0x00,Read,ACK
10.729960333333333,88,0x2B,0x00,Read,ACK
10.729984000000000,88,0x2B,0x00,Read,NAK
10.736933916666667,89,0x2B,0x1E,Read,ACK
10.736957500000001,89,0x2B,0x00,Read,ACK
10.736981166666666,89,0x2B,0x5D,Read,ACK
10.737004750000001,89,0x2B,0x08,Read,ACK
10.737028416666666,89,0x2B,0x62,Read,ACK
10.737052083333333,89,0x2B,0x3C,Read,ACK
10.737075666666666,89,0x2B,0xEB,Read,ACK
10.737099250000000,89,0x2B,0x30,Read,ACK
10.737122833333334,89,0x2B,0x7F,Read,ACK
10.737146500000000,89,0x2B,0x00,Read,ACK
10.737170166666667,89,0x2B,0x00,Read,ACK
10.737193749999999,89,0x2B,0x00,Read,ACK
10.737217416666667,89,0x2B,0x00,Read,ACK
10.737240999999999,89,0x2B,0x00,Read,ACK
10.737264666666666,89,0x2B,0x00,Read,ACK
10.737288333333334,89,0x2B,0x00,Read,ACK
10.737311916666666,89,0x2B,0x00,Read,ACK
10.737335500000000,89,0x2B,0x00,Read,ACK
10.737359166666666,89,0x2B,0x00,Read,ACK
10.737382750000000,89,0x2B,0x00,Read,ACK
10.737406416666667,89,0x2B,0x00,Read,ACK
10.737430083333333,89,0x2B,0x00,Read,ACK
10.737453666666667,89,0x2B,0x00,Read,ACK
10.737477250000000,89,0x2B,0x00,Read,ACK
10.737500916666667,89,0x2B,0x00,Read,ACK
10.737524499999999,89,0x2B,0x00,Read,ACK
10.737548166666667,89,0x2B,0x00,Read,ACK
10.737571750000001,89,0x2B,0x00,Read,ACK
10.737595416666666,89,0x2B,0x00,Read,ACK
10.737619000000000,89,0x2B,0x00,Read,NAK
10.744514416666666,90,0x2B,0x1E,Read,ACK
10.744538000000000,90,0x2B,0x00,Read,ACK
10.744561666666666,90,0x2B,0x5D,Read,ACK
10.744585250000000,90,0x2B,0x08,Read,ACK
10.744608916666667,90,0x2B,0x62,Read,ACK
10.744632583333333,90,0x2B,0x3E,Read,ACK
10.744656250000000,90,0x2B,0xEC,Read,ACK
10.744679833333333,90,0x2B,0x30,Read,ACK
10.744703500000000,90,0x2B,0x7F,Read,ACK
10.744727083333334,90,0x2B,0x00,Read,ACK
10.744750750000000,90,0x2B,0x00,Read,ACK
10.744774416666667,90,0x2B,0x00,Read,ACK
10.744797999999999,90,0x2B,0x00,Read,ACK
10.744821666666667,90,0x2B,0x00,Read,ACK
10.744845333333334,90,0x2B,0x00,Read,ACK
10.744869000000000,90,0x2B,0x00,Read,ACK
10.744892583333334,90,0x2B,0x00,Read,ACK
10.744916249999999,90,0x2B,0x00,Read,ACK
10.744939833333333,90,0x2B,0x00,Read,ACK
10.744963500000001,90,0x2B,0x00,Read,ACK
10.744987166666666,90,0x2B,0x00,Read,ACK
10.745010833333334,90,0x2B,0x00,Read,ACK
10.745034416666666,90,0x2B,0x00,Read,ACK
10.745058000000000,90,0x2B,0x00,Read,ACK
10.745081666666668,90,0x2B,0x00,Read,ACK
10.745105333333333,90,0x2B,0x00,Read,ACK
10.745129000000000,90,0x2B,0x00,Read,ACK
10.745152583333333,90,0x2B,0x00,Read,ACK
10.745176250000000,90,0x2B,0x00,Read,ACK
10.745199916666667,90,0x2B,0x00,Read,NAK
10.752120833333333,91,0x2B,0x1E,Read,ACK
10.752144416666667,91,0x2B,0x00,Read,ACK
10.752168083333334,91,0x2B,0x5D,Read,ACK
10.752191750000000,91,0x2B,0x08,Read,ACK
10.752215333333334,91,0x2B,0x62,Read,ACK
10.752238916666666,91,0x2B,0x40,Read,ACK
10.752262583333334,91,0x2B,0xED,Read,ACK
10.752286166666666,91,0x2B,0x30,Read,ACK
10.752309833333333,91,0x2B,0x7F,Read,ACK
10.752333500000001,91,0x2B,0x00,Read,ACK
10.752357083333333,91,0x2B,0x00,Read,ACK
10.752380750000000,91,0x2B,0x00,Read,ACK
10.752404416666666,91,0x2B,0x00,Read,ACK
10.752428083333333,91,0x2B,0x00,Read,ACK
10.752451750000001,91,0x2B,0x00,Read,ACK
10.752475333333333,91,0x2B,0x00,Read,ACK
10.752499000000000,91,0x2B,0x00,Read,ACK
10.752522583333333,91,0x2B,0x00,Read,ACK
10.752546333333333,91,0x2B,0x00,Read,ACK
10.752570000000000,91,0x2B,0x00,Read,ACK
10.752593666666666,91,0x2B,0x00,Read,ACK
10.752617333333333,91,0x2B,0x00,Read,ACK
10.752641083333334,91,0x2B,0x00,Read,ACK
10.752664666666666,91,0x2B,0x00,Read,ACK
10.752688333333333,91,0x2B,0x00,Read,ACK
10.752711916666666,91,0x2B,0x00,Read,ACK
10.752735583333333,91,0x2B,0x00,Read,ACK
10.752759250000000,91,0x2B,0x00,Read,ACK
10.752782916666666,91,0x2B,0x00,Read,ACK
10.752806583333333,91,0x2B,0x00,Read,NAK
10.759703333333333,92,0x2B,0x1E,Read,ACK
10.759726916666667,92,0x2B,0x00,Read,ACK
10.759750583333334,92,0x2B,0x5D,Read,ACK
10.759774166666666,92,0x2B,0x08,Read,ACK
10.759797750000001,92,0x2B,0x62,Read,ACK
10.759821333333333,92,0x2B,0x42,Read,ACK
10.759845000000000,92,0x2B,0xED,Read,ACK
10.759868583333333,92,0x2B,0x30,Read,ACK
10.759892250000000,92,0x2B,0x7F,Read,ACK
10.759915916666667,92,0x2B,0x00,Read,ACK
10.759939583333333,92,0x2B,0x00,Read,ACK
10.759963166666667,92,0x2B,0x00,Read,ACK
10.759986833333333,92,0x2B,0x00,Read,ACK
10.760010416666667,92,0x2B,0x00,Read,ACK
10.760034083333334,92,0x2B,0x00,Read,ACK
10.760057666666667,92,0x2B,0x00,Read,ACK
10.760081250000001,92,0x2B,0x00,Read,ACK
10.760104916666666,92,0x2B,0x00,Read,ACK
10.760128583333334,92,0x2B,0x00,Read,ACK
10.760152166666666,92,0x2B,0x00,Read,ACK
10.760175750000000,92,0x2B,0x00,Read,ACK
10.760199333333333,92,0x2B,0x00,Read,ACK
10.760223000000000,92,0x2B,0x00,Read,ACK
10.760246666666667,92,0x2B,0x00,Read,ACK
10.760270333333333,92,0x2B,0x00,Read,ACK
10.760293916666667,92,0x2B,0x00,Read,ACK
10.760317666666667,92,0x2B,0x00,Read,ACK
10.760341250000000,92,0x2B,0x00,Read,ACK
10.760364916666667,92,0x2B,0x00,Read,ACK
10.760388499999999,92,0x2B,0x00,Read,NAK
10.767235083333333,93,0x2B,0x1E,Read,ACK
10.767258750000000,93,0x2B,0x00,Read,ACK
10.767282416666667,93,0x2B,0x5D,Read,ACK
10.767306083333333,93,0x2B,0x08,Read,ACK
10.767329750000000,93,0x2B,0x62,Read,ACK
10.767353416666667,93,0x2B,0x43,Read,ACK
10.767377000000000,93,0x2B,0xED,Read,ACK
10.767400666666667,93,0x2B,0x30,Read,ACK
10.767424333333333,93,0x2B,0x7F,Read,ACK
10.767448000000000,93,0x2B,0x00,Read,ACK
10.767471583333334,93,0x2B,0x00,Read,ACK
10.767495250000000,93,0x2B,0x00,Read,ACK
10.767518916666667,93,0x2B,0x00,Read,ACK
10.767542583333332,93,0x2B,0x00,Read,ACK
10.767566250000000,93,0x2B,0x00,Read,ACK
10.767589916666667,93,0x2B,0x00,Read,ACK
10.767613583333333,93,0x2B,0x00,Read,ACK
10.767637166666667,93,0x2B,0x00,Read,ACK
10.767660833333334,93,0x2B,0x00,Read,ACK
10.767684500000000,93,0x2B,0x00,Read,ACK
10.767708250000000,93,0x2B,0x00,Read,ACK
10.767731916666667,93,0x2B,0x00,Read,ACK
10.767755666666666,93,0x2B,0x00,Read,ACK
10.767779333333333,93,0x2B,0x00,Read,ACK
10.767803083333334,93,0x2B,0x00,Read,ACK
10.767826749999999,93,0x2B,0x00,Read,ACK
10.767850333333334,93,0x2B,0x00,Read,ACK
10.767874000000001,93,0x2B,0x00,Read,ACK
10.767897666666666,93,0x2B,0x00,Read,ACK
10.767921333333334,93,0x2B,0x00,Read,NAK
10.774852166666667,94,0x2B,0x1E,Read,ACK
10.774875833333333,94,0x2B,0x00,Read,ACK
10.774899500000000,94,0x2B,0x5D,Read,ACK
10.774923083333332,94,0x2B,0x08,Read,ACK
10.774946750000000,94,0x2B,0x62,Read,ACK
10.774970333333334,94,0x2B,0x44,Read,ACK
10.774994000000000,94,0x2B,0xED,Read,ACK
10.775017583333334,94,0x2B,0x30,Read,ACK
10.775041249999999,94,0x2B,0x7F,Read,ACK
10.775065000000000,94,0x2B,0x00,Read,ACK
10.775088666666667,94,0x2B,0x00,Read,ACK
10.775112333333333,94,0x2B,0x00,Read,ACK
10.775136000000000,94,0x2B,0x00,Read,ACK
10.775159583333334,94,0x2B,0x00,Read,ACK
10.775183166666666,94,0x2B,0x00,Read,ACK
10.775206833333334,94,0x2B,0x00,Read,ACK
10.775230499999999,94,0x2B,0x00,Read,ACK
10.775254166666667,94,0x2B,0x00,Read,ACK
10.775277750000001,94,0x2B,0x00,Read,ACK
10.775301499999999,94,0x2B,0x00,Read,ACK
10.775325166666667,94,0x2B,0x00,Read,ACK
10.775348833333334,94,0x2B,0x00,Read,ACK
10.775372500000000,94,0x2B,0x00,Read,ACK
10.775396166666667,94,0x2B,0x00,Read,ACK
10.775419749999999,94,0x2B,0x00,Read,ACK
10.775443416666667,94,0x2B,0x00,Read,ACK
10.775467000000001,94,0x2B,0x00,Read,ACK
10.775490666666666,94,0x2B,0x00,Read,ACK
10.775514333333334,94,0x2B,0x00,Read,ACK
10.775537999999999,94,0x2B,0x00,Read,NAK
10.782437249999999,95,0x2B,0x1E,Read,ACK
10.782460916666667,95,0x2B,0x00,Read,ACK
10.782484500000001,95,0x2B,0x5D,Read,ACK
10.782508249999999,95,0x2B,0x08,Read,ACK
10.782531916666667,95,0x2B,0x62,Read,ACK
10.782555500000001,95,0x2B,0x44,Read,ACK
10.782579166666666,95,0x2B,0xED,Read,ACK
10.782602750000001,95,0x2B,0x30,Read,ACK
10.782626333333333,95,0x2B,0x7F,Read,ACK
10.782649916666667,95,0x2B,0x00,Read,ACK
10.782673583333333,95,0x2B,0x00,Read,ACK
10.782697166666667,95,0x2B,0x00,Read,ACK
10.782720833333334,95,0x2B,0x00,Read,ACK
10.782744500000000,95,0x2B,0x00,Read,ACK
10.782768166666667,95,0x2B,0x00,Read,ACK
10.782791833333333,95,0x2B,0x00,Read,ACK
10.782815500000000,95,0x2B,0x00,Read,ACK
10.782839166666667,95,0x2B,0x00,Read,ACK
10.782862750000000,95,0x2B,0x00,Read,ACK
10.782886333333334,95,0x2B,0x00,Read,ACK
10.782909999999999,95,0x2B,0x00,Read,ACK
10.782933666666667,95,0x2B,0x00,Read,ACK
10.782957333333334,95,0x2B,0x00,Read,ACK
10.782980916666666,95,0x2B,0x00,Read,ACK
10.783004583333334,95,0x2B,0x00,Read,ACK
10.783028166666666,95,0x2B,0x00,Read,ACK
10.783051833333333,95,0x2B,0x00,Read,ACK
10.783075416666666,95,0x2B,0x00,Read,ACK
10.783099083333333,95,0x2B,0x00,Read,ACK
10.783122833333334,95,0x2B,0x00,Read,NAK
10.790009166666668,96,0x2B,0x1E,Read,ACK
10.790032833333333,96,0x2B,0x00,Read,ACK
10.790056416666667,96,0x2B,0x5D,Read,ACK
10.790080000000000,96,0x2B,0x08,Read,ACK
10.790103666666667,96,0x2B,0x62,Read,ACK
10.790127249999999,96,0x2B,0x44,Read,ACK
10.790150916666667,96,0x2B,0xED,Read,ACK
10.790174583333334,96,0x2B,0x30,Read,ACK
10.790198250000000,96,0x2B,0x7F,Read,ACK
10.790221916666667,96,0x2B,0x00,Read,ACK
10.790245583333334,96,0x2B,0x00,Read,ACK
10.790269250000000,96,0x2B,0x00,Read,ACK
10.790292916666667,96,0x2B,0x00,Read,ACK
10.790316583333333,96,0x2B,0x00,Read,ACK
10.790340333333333,96,0x2B,0x00,Read,ACK
10.790363916666667,96,0x2B,0x00,Read,ACK
10.790387583333333,96,0x2B,0x00,Read,ACK
10.790411250000000,96,0x2B,0x00,Read,ACK
10.790434833333334,96,0x2B,0x00,Read,ACK
10.790458500000000,96,0x2B,0x00,Read,ACK
10.790482083333334,96,0x2B,0x00,Read,ACK
10.790505749999999,96,0x2B,0x00,Read,ACK
10.790529416666667,96,0x2B,0x00,Read,ACK
10.790553083333334,96,0x2B,0x00,Read,ACK
10.790576666666666,96,0x2B,0x00,Read,ACK
10.790600333333334,96,0x2B,0x00,Read,ACK
10.790623999999999,96,0x2B,0x00,Read,ACK
10.790647583333334,96,0x2B,0x00,Read,ACK
10.790671333333334,96,0x2B,0x00,Read,ACK
10.790694999999999,96,0x2B,0x00,Read,NAK
10.797591166666667,97,0x2B,0x1E,Read,ACK
10.797614833333334,97,0x2B,0x00,Read,ACK
10.797638500000000,97,0x2B,0x5D,Read,ACK
10.797662166666667,97,0x2B,0x08,Read,ACK
10.797685749999999,97,0x2B,0x62,Read,ACK
10.797709416666667,97,0x2B,0x43,Read,ACK
10.797733083333334,97,0x2B,0xEC,Read,ACK
10.797756666666666,97,0x2B,0x30,Read,ACK
10.797780250000001,97,0x2B,0x7F,Read,ACK
10.797803833333333,97,0x2B,0x00,Read,ACK
10.797827500000000,97,0x2B,0x00,Read,ACK
10.797851083333333,97,0x2B,0x00,Read,ACK
10.797874750000000,97,0x2B,0x00,Read,ACK
10.797898416666667,97,0x2B,0x00,Read,ACK
10.797922083333333,97,0x2B,0x00,Read,ACK
10.797945750000000,97,0x2B,0x00,Read,ACK
10.797969333333333,97,0x2B,0x00,Read,ACK
10.797992916666667,97,0x2B,0x00,Read,ACK
10.798016583333334,97,0x2B,0x00,Read,ACK
10.798040166666667,97,0x2B,0x00,Read,ACK
10.798063750000001,97,0x2B,0x00,Read,ACK
10.798087416666666,97,0x2B,0x00,Read,ACK
10.798111000000000,97,0x2B,0x00,Read,ACK
10.798134583333333,97,0x2B,0x00,Read,ACK
10.798158250000000,97,0x2B,0x00,Read,ACK
10.798181833333333,97,0x2B,0x00,Read,ACK
10.798205500000000,97,0x2B,0x00,Read,ACK
10.798229083333334,97,0x2B,0x00,Read,ACK
10.798252750000000,97,0x2B,0x00,Read,ACK
10.798276333333334,97,0x2B,0x00,Read,NAK
10.805119250000001,98,0x2B,0x1E,Read,ACK
10.805142916666666,98,0x2B,0x00,Read,ACK
10.805166583333333,98,0x2B,0x5D,Read,ACK
10.805190250000001,98,0x2B,0x08,Read,ACK
10.805213916666666,98,0x2B,0x62,Read,ACK
10.805237500000000,98,0x2B,0x41,Read,ACK
10.805261166666666,98,0x2B,0xEA,Read,ACK
10.805284833333333,98,0x2B,0x20,Read,ACK
10.805308500000001,98,0x2B,0x7F,Read,ACK
10.805332083333333,98,0x2B,0x00,Read,ACK
10.805355750000000,98,0x2B,0x00,Read,ACK
10.805379416666666,98,0x2B,0x00,Read,ACK
10.805403083333333,98,0x2B,0x00,Read,ACK
10.805426750000001,98,0x2B,0x00,Read,ACK
10.805450333333333,98,0x2B,0x00,Read,ACK
10.805474000000000,98,0x2B,0x00,Read,ACK
10.805497666666666,98,0x2B,0x00,Read,ACK
10.805521333333333,98,0x2B,0x00,Read,ACK
10.805545000000000,98,0x2B,0x00,Read,ACK
10.805568666666666,98,0x2B,0x00,Read,ACK
10.805592250000000,98,0x2B,0x00,Read,ACK
10.805615916666667,98,0x2B,0x00,Read,ACK
10.805639583333333,98,0x2B,0x00,Read,ACK
10.805663333333333,98,0x2B,0x00,Read,ACK
10.805687000000001,98,0x2B,0x00,Read,ACK
10.805710666666666,98,0x2B,0x00,Read,ACK
10.805734250000000,98,0x2B,0x00,Read,ACK
10.805757916666666,98,0x2B,0x00,Read,ACK
10.805781583333333,98,0x2B,0x00,Read,ACK
10.805805333333334,98,0x2B,0x00,Read,NAK
10.812376333333333,99,0x2B,0x1E,Read,ACK
10.812399916666667,99,0x2B,0x00,Read,ACK
10.812423583333333,99,0x2B,0x5D,Read,ACK
10.812447166666667,99,0x2B,0x08,Read,ACK
10.812470833333334,99,0x2B,0x62,Read,ACK
10.812494500000000,99,0x2B,0x3D,Read,ACK
10.812518166666667,99,0x2B,0xE7,Read,ACK
10.812541833333333,99,0x2B,0x20,Read,ACK
10.812565500000000,99,0x2B,0x7F,Read,ACK
10.812589166666667,99,0x2B,0x00,Read,ACK
10.812612833333333,99,0x2B,0x00,Read,ACK
10.812636500000000,99,0x2B,0x00,Read,ACK
10.812660166666667,99,0x2B,0x00,Read,ACK
10.812683750000000,99,0x2B,0x00,Read,ACK
10.812707416666667,99,0x2B,0x00,Read,ACK
10.812731083333333,99,0x2B,0x00,Read,ACK
10.812754750000000,99,0x2B,0x00,Read,ACK
10.812778333333334,99,0x2B,0x00,Read,ACK
10.812801916666666,99,0x2B,0x00,Read,ACK
10.812825583333334,99,0x2B,0x00,Read,ACK
10.812849249999999,99,0x2B,0x00,Read,ACK
10.812872916666667,99,0x2B,0x00,Read,ACK
10.812896583333334,99,0x2B,0x00,Read,ACK
10.812920166666666,99,0x2B,0x00,Read,ACK
10.812943750000001,99,0x2B,0x00,Read,ACK
10.812967416666666,99,0x2B,0x00,Read,ACK
10.812991083333333,99,0x2B,0x00,Read,ACK
10.813014750000001,99,0x2B,0x00,Read,ACK
10.813038333333333,99,0x2B,0x00,Read,ACK
10.813062000000000,99,0x2B,0x00,Read,NAK
10.819726916666667,100,0x2B,0x1E,Read,ACK
10.819750583333333,100,0x2B,0x00,Read,ACK
10.819774166666667,100,0x2B,0x5D,Read,ACK
10.819797749999999,100,0x2B,0x00,Read,ACK
10.819821416666667,100,0x2B,0x00,Read,ACK
10.819845083333334,100,0x2B,0x00,Read,ACK
10.819868666666666,100,0x2B,0x00,Read,ACK
10.819892250000001,100,0x2B,0x00,Read,ACK
10.819915916666666,100,0x2B,0x00,Read,ACK
10.819939500000000,100,0x2B,0x00,Read,ACK
10.819963166666666,100,0x2B,0x00,Read,ACK
10.819986750000000,100,0x2B,0x00,Read,ACK
10.820010333333334,100,0x2B,0x00,Read,ACK
10.820034000000000,100,0x2B,0x00,Read,ACK
10.820057583333334,100,0x2B,0x00,Read,ACK
10.820081249999999,100,0x2B,0x00,Read,ACK
10.820104833333334,100,0x2B,0x00,Read,ACK
10.820128499999999,100,0x2B,0x00,Read,ACK
10.820152083333333,100,0x2B,0x00,Read,ACK
10.820175666666668,100,0x2B,0x00,Read,ACK
10.820199333333333,100,0x2B,0x00,Read,ACK
10.820223000000000,100,0x2B,0x00,Read,ACK
10.820246666666666,100,0x2B,0x00,Read,ACK
10.820270333333333,100,0x2B,0x00,Read,ACK
10.820294000000001,100,0x2B,0x00,Read,ACK
10.820317666666666,100,0x2B,0x00,Read,ACK
10.820341250000000,100,0x2B,0x00,Read,ACK
10.820364833333333,100,0x2B,0x00,Read,ACK
10.820388416666667,100,0x2B,0x00,Read,ACK
10.820412083333334,100,0x2B,0x00,Read,NAK
