Time [s],Packet ID,Address,Data,Read/Write,ACK/NAK
2.379984666666667,0,0x2A,0x01,Write,ACK
2.380008250000000,0,0x2A,0x00,Write,ACK
2.380090916666667,1,0x2B,0x1E,Read,ACK
2.380114583333333,1,0x2B,0x00,Read,ACK
2.380138166666667,1,0x2B,0x00,Read,ACK
2.380161833333333,1,0x2B,0x01,Read,ACK
2.380185500000000,1,0x2B,0x85,Read,ACK
2.380209083333333,1,0x2B,0x00,Read,ACK
2.380232750000000,1,0x2B,0x02,Read,ACK
2.380256333333334,1,0x2B,0x00,Read,ACK
2.380280000000000,1,0x2B,0x03,Read,ACK
2.380303666666667,1,0x2B,0x00,Read,ACK
2.380327250000000,1,0x2B,0x1E,Read,ACK
2.380350916666667,1,0x2B,0x00,Read,ACK
2.380374500000000,1,0x2B,0x04,Read,ACK
2.380398166666667,1,0x2B,0x00,Read,ACK
2.380421750000000,1,0x2B,0x42,Read,ACK
2.380445416666667,1,0x2B,0x00,Read,ACK
2.380469083333333,1,0x2B,0x05,Read,ACK
2.380492666666667,1,0x2B,0x00,Read,ACK
2.380516333333333,1,0x2B,0x06,Read,ACK
2.380539916666667,1,0x2B,0x00,Read,ACK
2.380563583333333,1,0x2B,0x05,Read,ACK
2.380587166666666,1,0x2B,0x0B,Read,ACK
2.380610833333333,1,0x2B,0x01,Read,ACK
2.380634416666667,1,0x2B,0x01,Read,ACK
2.380658083333334,1,0x2B,0x07,Read,ACK
2.380681750000000,1,0x2B,0x00,Read,ACK
2.380705333333333,1,0x2B,0x00,Read,ACK
2.380729000000000,1,0x2B,0x00,Read,ACK
2.380752583333333,1,0x2B,0x00,Read,ACK
2.380776250000000,1,0x2B,0x00,Read,NAK
2.380963916666667,2,0x2A,0x05,Write,ACK
2.380987500000000,2,0x2A,0x00,Write,ACK
2.381011166666667,2,0x2A,0x00,Write,ACK
2.381034833333334,2,0x2A,0x08,Write,ACK
2.381381500000000,3,0x2A,0x05,Write,ACK
2.381405083333333,3,0x2A,0x00,Write,ACK
2.381428750000000,3,0x2A,0x00,Write,ACK
2.381452416666667,3,0x2A,0x01,Write,ACK
2.381628666666667,4,0x2B,0x00,Read,ACK
2.381652250000000,4,0x2B,0x00,Read,ACK
2.381675916666667,4,0x2B,0x00,Read,ACK
2.381699500000000,4,0x2B,0x00,Read,ACK
2.381723166666667,4,0x2B,0x00,Read,ACK
2.381746833333333,4,0x2B,0x00,Read,ACK
2.381770500000000,4,0x2B,0x00,Read,ACK
2.381794083333333,4,0x2B,0x00,Read,ACK
2.381817750000000,4,0x2B,0x00,Read,ACK
2.381841333333333,4,0x2B,0x00,Read,ACK
2.381865000000000,4,0x2B,0x00,Read,ACK
2.381888666666667,4,0x2B,0x00,Read,ACK
2.381912333333333,4,0x2B,0x00,Read,ACK
2.381935916666666,4,0x2B,0x00,Read,ACK
2.381959583333333,4,0x2B,0x00,Read,ACK
2.381983166666667,4,0x2B,0x00,Read,ACK
2.382006833333334,4,0x2B,0x00,Read,ACK
2.382030500000000,4,0x2B,0x00,Read,ACK
2.382054166666667,4,0x2B,0x00,Read,ACK
2.382077750000000,4,0x2B,0x00,Read,ACK
2.382101416666667,4,0x2B,0x00,Read,ACK
2.382125083333333,4,0x2B,0x00,Read,ACK
2.382148750000000,4,0x2B,0x00,Read,ACK
2.382172333333333,4,0x2B,0x00,Read,ACK
2.382196000000000,4,0x2B,0x00,Read,ACK
2.382219583333333,4,0x2B,0x00,Read,ACK
2.382243250000000,4,0x2B,0x00,Read,ACK
2.382266916666667,4,0x2B,0x00,Read,ACK
2.382290583333333,4,0x2B,0x00,Read,ACK
2.382314166666667,4,0x2B,0x00,Read,NAK
2.382700333333333,5,0x2A,0x02,Write,ACK
2.382724083333333,5,0x2A,0x00,Write,ACK
2.382874916666667,6,0x2B,0x05,Read,ACK
2.382898583333333,6,0x2B,0x01,Read,ACK
2.382922166666666,6,0x2B,0x09,Read,ACK
2.382945833333333,6,0x2B,0x02,Read,ACK
2.382969500000000,6,0x2B,0xA1,Read,ACK
2.382993166666667,6,0x2B,0x01,Read,ACK
2.383016750000000,6,0x2B,0x85,Read,ACK
2.383040416666667,6,0x2B,0x01,Read,ACK
2.383064083333333,6,0x2B,0x09,Read,ACK
2.383087666666666,6,0x2B,0x01,Read,ACK
2.383111333333333,6,0x2B,0xA1,Read,ACK
2.383135000000000,6,0x2B,0x00,Read,ACK
2.383158666666667,6,0x2B,0x05,Read,ACK
2.383182250000000,6,0x2B,0x09,Read,ACK
2.383205916666667,6,0x2B,0x19,Read,ACK
2.383229583333333,6,0x2B,0x01,Read,ACK
2.383253250000000,6,0x2B,0x29,Read,ACK
2.383276833333333,6,0x2B,0x02,Read,ACK
2.383300500000000,6,0x2B,0x15,Read,ACK
2.383324166666667,6,0x2B,0x00,Read,ACK
2.383347833333334,6,0x2B,0x25,Read,ACK
2.383371500000000,6,0x2B,0x01,Read,ACK
2.383395083333333,6,0x2B,0x75,Read,ACK
2.383418750000000,6,0x2B,0x01,Read,ACK
2.383442416666667,6,0x2B,0x95,Read,ACK
2.383466083333333,6,0x2B,0x02,Read,ACK
2.383489750000000,6,0x2B,0x81,Read,ACK
2.383513333333333,6,0x2B,0x02,Read,ACK
2.383537000000000,6,0x2B,0x95,Read,ACK
2.383560666666667,6,0x2B,0x06,Read,ACK
2.383584250000000,6,0x2B,0x81,Read,ACK
2.383607916666667,6,0x2B,0x03,Read,ACK
2.383631583333333,6,0x2B,0x05,Read,ACK
2.383655250000000,6,0x2B,0x01,Read,ACK
2.383678833333333,6,0x2B,0x09,Read,ACK
2.383702500000000,6,0x2B,0x30,Read,ACK
2.383726166666666,6,0x2B,0x09,Read,ACK
2.383749833333333,6,0x2B,0x31,Read,ACK
2.383773416666667,6,0x2B,0x09,Read,ACK
2.383797083333334,6,0x2B,0x38,Read,ACK
2.383820750000000,6,0x2B,0x15,Read,ACK
2.383844416666667,6,0x2B,0x81,Read,ACK
2.383868000000000,6,0x2B,0x25,Read,ACK
2.383891666666667,6,0x2B,0x7F,Read,ACK
2.383915250000000,6,0x2B,0x75,Read,ACK
2.383938916666667,6,0x2B,0x08,Read,ACK
2.383962666666667,6,0x2B,0x95,Read,ACK
2.383986250000000,6,0x2B,0x03,Read,ACK
2.384009916666667,6,0x2B,0x81,Read,ACK
2.384033500000000,6,0x2B,0x06,Read,ACK
2.384057166666667,6,0x2B,0xC0,Read,ACK
2.384080833333333,6,0x2B,0xC0,Read,ACK
2.384104500000000,6,0x2B,0x06,Read,ACK
2.384128166666667,6,0x2B,0x00,Read,ACK
2.384151750000000,6,0x2B,0xFF,Read,ACK
2.384175416666667,6,0x2B,0x09,Read,ACK
2.384199083333333,6,0x2B,0xC5,Read,ACK
2.384222750000000,6,0x2B,0xA1,Read,ACK
2.384246333333333,6,0x2B,0x01,Read,ACK
2.384270000000000,6,0x2B,0x85,Read,ACK
2.384293583333333,6,0x2B,0x0D,Read,ACK
2.384317250000000,6,0x2B,0x09,Read,ACK
2.384340916666666,6,0x2B,0xC5,Read,ACK
2.384364583333333,6,0x2B,0x15,Read,ACK
2.384388250000000,6,0x2B,0x00,Read,ACK
2.384411833333334,6,0x2B,0x26,Read,ACK
2.384435500000000,6,0x2B,0xFF,Read,ACK
2.384459166666667,6,0x2B,0x00,Read,ACK
2.384482750000000,6,0x2B,0x75,Read,ACK
2.384506416666667,6,0x2B,0x08,Read,ACK
2.384530000000000,6,0x2B,0x95,Read,ACK
2.384553666666667,6,0x2B,0x04,Read,ACK
2.384577333333334,6,0x2B,0xB1,Read,ACK
2.384601000000000,6,0x2B,0x02,Read,ACK
2.384624583333333,6,0x2B,0x85,Read,ACK
2.384648250000000,6,0x2B,0x0C,Read,ACK
2.384671833333333,6,0x2B,0x09,Read,ACK
2.384695583333333,6,0x2B,0xC6,Read,ACK
2.384719166666667,6,0x2B,0x96,Read,ACK
2.384742833333333,6,0x2B,0x76,Read,ACK
2.384766416666667,6,0x2B,0x02,Read,ACK
2.384790083333333,6,0x2B,0x75,Read,ACK
2.384813750000000,6,0x2B,0x08,Read,ACK
2.384837416666667,6,0x2B,0xB1,Read,ACK
2.384861000000000,6,0x2B,0x02,Read,ACK
2.384884666666667,6,0x2B,0x85,Read,ACK
2.384908250000000,6,0x2B,0x0B,Read,ACK
2.384931916666666,6,0x2B,0x09,Read,ACK
2.384955583333333,6,0x2B,0xC7,Read,ACK
2.384979250000000,6,0x2B,0x95,Read,ACK
2.385002833333334,6,0x2B,0x80,Read,ACK
2.385026500000000,6,0x2B,0x75,Read,ACK
2.385050166666667,6,0x2B,0x08,Read,ACK
2.385073833333333,6,0x2B,0xB1,Read,ACK
2.385097416666667,6,0x2B,0x02,Read,ACK
2.385121083333333,6,0x2B,0x85,Read,ACK
2.385144750000000,6,0x2B,0x5D,Read,ACK
2.385168333333333,6,0x2B,0x09,Read,ACK
2.385192000000000,6,0x2B,0x01,Read,ACK
2.385215666666667,6,0x2B,0x95,Read,ACK
2.385239333333333,6,0x2B,0x1B,Read,ACK
2.385262916666667,6,0x2B,0x75,Read,ACK
2.385286583333333,6,0x2B,0x08,Read,ACK
2.385310250000000,6,0x2B,0x81,Read,ACK
2.385333916666667,6,0x2B,0x06,Read,ACK
2.385357583333333,6,0x2B,0xC0,Read,ACK
2.385381250000000,6,0x2B,0x06,Read,ACK
2.385404833333333,6,0x2B,0x00,Read,ACK
2.385428583333333,6,0x2B,0xFF,Read,ACK
2.385452166666667,6,0x2B,0x09,Read,ACK
2.385475833333333,6,0x2B,0x01,Read,ACK
2.385499500000000,6,0x2B,0xA1,Read,ACK
2.385523083333333,6,0x2B,0x01,Read,ACK
2.385546750000000,6,0x2B,0x15,Read,ACK
2.385570416666666,6,0x2B,0x00,Read,ACK
2.385594083333333,6,0x2B,0x26,Read,ACK
2.385617666666667,6,0x2B,0xFF,Read,ACK
2.385641333333334,6,0x2B,0x00,Read,ACK
2.385665000000000,6,0x2B,0x75,Read,ACK
2.385688666666667,6,0x2B,0x08,Read,ACK
2.385712250000000,6,0x2B,0x85,Read,ACK
2.385735916666667,6,0x2B,0x06,Read,ACK
2.385759583333333,6,0x2B,0x95,Read,ACK
2.385783250000000,6,0x2B,0x3F,Read,ACK
2.385806833333334,6,0x2B,0x09,Read,ACK
2.385830500000000,6,0x2B,0x01,Read,ACK
2.385854166666667,6,0x2B,0x81,Read,ACK
2.385877750000000,6,0x2B,0x02,Read,ACK
2.385901416666667,6,0x2B,0x09,Read,ACK
2.385925083333333,6,0x2B,0x01,Read,ACK
2.385948750000000,6,0x2B,0x91,Read,ACK
2.385972416666667,6,0x2B,0x02,Read,ACK
2.385996000000000,6,0x2B,0xC0,Read,NAK
2.448031916666667,7,0x2A,0x05,Write,ACK
2.448055500000000,7,0x2A,0x00,Write,ACK
2.448079166666667,7,0x2A,0x3D,Write,ACK
2.448102750000000,7,0x2A,0x03,Write,ACK
2.448126416666667,7,0x2A,0x06,Write,ACK
2.448150083333333,7,0x2A,0x00,Write,ACK
2.448173750000000,7,0x2A,0x07,Write,ACK
2.448197416666666,7,0x2A,0x00,Write,ACK
2.448221083333333,7,0x2A,0x0D,Write,ACK
2.448244750000000,7,0x2A,0x05,Write,ACK
2.448268416666667,7,0x2A,0x03,Write,ACK
2.448292083333333,7,0x2A,0x03,Write,ACK
2.448315750000000,7,0x2A,0x44,Write,ACK
2.507860916666667,8,0x2A,0x05,Write,ACK
2.507884583333333,8,0x2A,0x00,Write,ACK
2.507908166666667,8,0x2A,0x3D,Write,ACK
2.507931833333333,8,0x2A,0x02,Write,ACK
2.507955500000000,8,0x2A,0x06,Write,ACK
2.507979166666667,8,0x2A,0x00,Write,ACK
2.508066833333333,9,0x2B,0x07,Read,ACK
2.508090500000000,9,0x2B,0x00,Read,ACK
2.508114166666667,9,0x2B,0x0D,Read,ACK
2.508137833333334,9,0x2B,0x44,Read,ACK
2.508161500000000,9,0x2B,0x03,Read,ACK
2.508185166666667,9,0x2B,0x00,Read,ACK
2.508208833333333,9,0x2B,0x00,Read,NAK
2.570650416666667,10,0x2A,0x05,Write,ACK
2.570674083333333,10,0x2A,0x00,Write,ACK
2.570697666666667,10,0x2A,0x3D,Write,ACK
2.570721333333333,10,0x2A,0x03,Write,ACK
2.570745000000000,10,0x2A,0x06,Write,ACK
2.570768583333333,10,0x2A,0x00,Write,ACK
2.570792166666667,10,0x2A,0x07,Write,ACK
2.570815833333334,10,0x2A,0x00,Write,ACK
2.570839500000000,10,0x2A,0x0D,Write,ACK
2.570863083333333,10,0x2A,0x00,Write,ACK
2.570886750000000,10,0x2A,0x03,Write,ACK
2.570910333333333,10,0x2A,0x01,Write,ACK
2.570934000000000,10,0x2A,0x00,Write,ACK
2.633035833333333,11,0x2A,0x05,Write,ACK
2.633059333333333,11,0x2A,0x00,Write,ACK
2.633082916666666,11,0x2A,0x3D,Write,ACK
2.633106500000000,11,0x2A,0x03,Write,ACK
2.633130083333334,11,0x2A,0x06,Write,ACK
2.633153666666667,11,0x2A,0x00,Write,ACK
2.633177250000000,11,0x2A,0x07,Write,ACK
2.633200916666667,11,0x2A,0x00,Write,ACK
2.633224583333333,11,0x2A,0x0D,Write,ACK
2.633248166666667,11,0x2A,0x05,Write,ACK
2.633271833333333,11,0x2A,0x03,Write,ACK
2.633295500000000,11,0x2A,0x06,Write,ACK
2.633319166666667,11,0x2A,0x01,Write,ACK
2.695528500000000,12,0x2A,0x05,Write,ACK
2.695552083333333,12,0x2A,0x00,Write,ACK
2.695575666666667,12,0x2A,0x3D,Write,ACK
2.695599250000000,12,0x2A,0x02,Write,ACK
2.695622833333333,12,0x2A,0x06,Write,ACK
2.695646416666666,12,0x2A,0x00,Write,ACK
2.695729583333333,13,0x2B,0x07,Read,ACK
2.695753250000000,13,0x2B,0x00,Read,ACK
2.695776916666667,13,0x2B,0x0D,Read,ACK
2.695800583333333,13,0x2B,0x06,Read,ACK
2.695824166666667,13,0x2B,0x01,Read,ACK
2.695847833333334,13,0x2B,0xF0,Read,ACK
2.695871416666667,13,0x2B,0x0A,Read,NAK
2.758313583333333,14,0x2A,0x05,Write,ACK
2.758337083333333,14,0x2A,0x00,Write,ACK
2.758360583333333,14,0x2A,0x3D,Write,ACK
2.758384166666667,14,0x2A,0x03,Write,ACK
2.758407750000000,14,0x2A,0x06,Write,ACK
2.758431416666667,14,0x2A,0x00,Write,ACK
2.758455000000000,14,0x2A,0x07,Write,ACK
2.758478583333333,14,0x2A,0x00,Write,ACK
2.758502166666667,14,0x2A,0x0D,Write,ACK
2.758525750000000,14,0x2A,0x05,Write,ACK
2.758549500000000,14,0x2A,0x03,Write,ACK
2.758573083333333,14,0x2A,0x07,Write,ACK
2.758596666666667,14,0x2A,0x01,Write,ACK
2.820648666666667,15,0x2A,0x05,Write,ACK
2.820672333333333,15,0x2A,0x00,Write,ACK
2.820695916666667,15,0x2A,0x3D,Write,ACK
2.820719583333333,15,0x2A,0x02,Write,ACK
2.820743166666666,15,0x2A,0x06,Write,ACK
2.820766833333333,15,0x2A,0x00,Write,ACK
2.820946416666667,16,0x2B,0x07,Read,ACK
2.820970000000000,16,0x2B,0x00,Read,ACK
2.820993666666667,16,0x2B,0x0D,Read,ACK
2.821017333333333,16,0x2B,0x07,Read,ACK
2.821040916666667,16,0x2B,0x01,Read,ACK
2.821064500000000,16,0x2B,0xE7,Read,ACK
2.821088166666667,16,0x2B,0x06,Read,NAK
2.883364250000000,17,0x2A,0x05,Write,ACK
2.883387833333333,17,0x2A,0x00,Write,ACK
2.883411416666667,17,0x2A,0x3D,Write,ACK
2.883435166666667,17,0x2A,0x03,Write,ACK
2.883458833333334,17,0x2A,0x06,Write,ACK
2.883482500000000,17,0x2A,0x00,Write,ACK
2.883506083333333,17,0x2A,0x07,Write,ACK
2.883529666666667,17,0x2A,0x00,Write,ACK
2.883553333333333,17,0x2A,0x0D,Write,ACK
2.883577000000000,17,0x2A,0x05,Write,ACK
2.883600583333333,17,0x2A,0x03,Write,ACK
2.883624166666667,17,0x2A,0x0A,Write,ACK
2.883647750000000,17,0x2A,0x01,Write,ACK
2.936629000000000,18,0x2A,0x05,Write,ACK
2.936652666666667,18,0x2A,0x00,Write,ACK
2.936676333333333,18,0x2A,0x3D,Write,ACK
2.936699916666667,18,0x2A,0x02,Write,ACK
2.936723500000000,18,0x2A,0x06,Write,ACK
2.936747166666667,18,0x2A,0x00,Write,ACK
2.936838666666667,19,0x2B,0x07,Read,ACK
2.936862166666667,19,0x2B,0x00,Read,ACK
2.936885666666667,19,0x2B,0x0D,Read,ACK
2.936909166666667,19,0x2B,0x0A,Read,ACK
2.936932666666667,19,0x2B,0x01,Read,ACK
2.936956166666667,19,0x2B,0xF8,Read,ACK
2.936979666666667,19,0x2B,0x03,Read,NAK
2.999047750000000,20,0x2A,0x05,Write,ACK
2.999071416666667,20,0x2A,0x00,Write,ACK
2.999095083333333,20,0x2A,0x3D,Write,ACK
2.999118666666666,20,0x2A,0x03,Write,ACK
2.999142250000000,20,0x2A,0x06,Write,ACK
2.999165916666667,20,0x2A,0x00,Write,ACK
2.999189583333334,20,0x2A,0x07,Write,ACK
2.999213166666667,20,0x2A,0x00,Write,ACK
2.999236750000000,20,0x2A,0x0D,Write,ACK
2.999260333333333,20,0x2A,0x05,Write,ACK
2.999284000000000,20,0x2A,0x03,Write,ACK
2.999307583333333,20,0x2A,0x0B,Write,ACK
2.999331250000000,20,0x2A,0x01,Write,ACK
3.061675000000000,21,0x2A,0x05,Write,ACK
3.061698583333333,21,0x2A,0x00,Write,ACK
3.061722250000000,21,0x2A,0x3D,Write,ACK
3.061745916666667,21,0x2A,0x02,Write,ACK
3.061769500000000,21,0x2A,0x06,Write,ACK
3.061793166666666,21,0x2A,0x00,Write,ACK
3.061866250000000,22,0x2B,0x07,Read,ACK
3.061889916666667,22,0x2B,0x00,Read,ACK
3.061913500000000,22,0x2B,0x0D,Read,ACK
3.061937166666667,22,0x2B,0x0B,Read,ACK
3.061960750000000,22,0x2B,0x01,Read,ACK
3.061984333333333,22,0x2B,0xBD,Read,ACK
3.062008000000000,22,0x2B,0x02,Read,NAK
3.124245083333333,23,0x2A,0x05,Write,ACK
3.124268666666667,23,0x2A,0x00,Write,ACK
3.124292250000000,23,0x2A,0x3D,Write,ACK
3.124315916666667,23,0x2A,0x03,Write,ACK
3.124339500000000,23,0x2A,0x06,Write,ACK
3.124363166666666,23,0x2A,0x00,Write,ACK
3.124386833333333,23,0x2A,0x07,Write,ACK
3.124410500000000,23,0x2A,0x00,Write,ACK
3.124434083333334,23,0x2A,0x0D,Write,ACK
3.124457666666667,23,0x2A,0x05,Write,ACK
3.124481333333333,23,0x2A,0x03,Write,ACK
3.124504916666667,23,0x2A,0x00,Write,ACK
3.124528583333333,23,0x2A,0x01,Write,ACK
3.186745583333333,24,0x2A,0x05,Write,ACK
3.186769166666667,24,0x2A,0x00,Write,ACK
3.186792750000000,24,0x2A,0x3D,Write,ACK
3.186816333333333,24,0x2A,0x02,Write,ACK
3.186839916666667,24,0x2A,0x06,Write,ACK
3.186863500000000,24,0x2A,0x00,Write,ACK
3.186953500000000,25,0x2B,0x07,Read,ACK
3.186977166666667,25,0x2B,0x00,Read,ACK
3.187000750000000,25,0x2B,0x0D,Read,ACK
3.187024333333333,25,0x2B,0x00,Read,ACK
3.187048000000000,25,0x2B,0x01,Read,ACK
3.187071666666667,25,0x2B,0x07,Read,ACK
3.187095250000000,25,0x2B,0x07,Read,NAK
3.249159000000000,26,0x2A,0x05,Write,ACK
3.249182666666667,26,0x2A,0x00,Write,ACK
3.249206333333333,26,0x2A,0x3D,Write,ACK
3.249230000000000,26,0x2A,0x03,Write,ACK
3.249253583333333,26,0x2A,0x06,Write,ACK
3.249277250000000,26,0x2A,0x00,Write,ACK
3.249300916666667,26,0x2A,0x07,Write,ACK
3.249324583333333,26,0x2A,0x00,Write,ACK
3.249348166666667,26,0x2A,0x0D,Write,ACK
3.249371833333333,26,0x2A,0x05,Write,ACK
3.249395416666667,26,0x2A,0x03,Write,ACK
3.249418916666666,26,0x2A,0x03,Write,ACK
3.249442583333333,26,0x2A,0x01,Write,ACK
3.299645833333333,27,0x2A,0x05,Write,ACK
3.299669416666667,27,0x2A,0x00,Write,ACK
3.299693083333334,27,0x2A,0x3D,Write,ACK
3.299716750000000,27,0x2A,0x02,Write,ACK
3.299740416666667,27,0x2A,0x06,Write,ACK
3.299764083333333,27,0x2A,0x00,Write,ACK
3.299837500000000,28,0x2B,0x07,Read,ACK
3.299861083333334,28,0x2B,0x00,Read,ACK
3.299884750000000,28,0x2B,0x0D,Read,ACK
3.299908333333333,28,0x2B,0x03,Read,ACK
3.299931916666667,28,0x2B,0x01,Read,ACK
3.299955583333333,28,0x2B,0x07,Read,ACK
3.299979250000000,28,0x2B,0x07,Read,NAK
