Time [s],Packet ID,Address,Data,Read/Write,ACK/NAK
0.000019583333333,0,0x2A,0x01,Write,ACK
0.000043166666667,0,0x2A,0x00,Write,ACK
0.000173250000000,1,0x2B,0x1E,Read,ACK
0.000196916666667,1,0x2B,0x00,Read,ACK
0.000220500000000,1,0x2B,0x00,Read,ACK
0.000244166666667,1,0x2B,0x01,Read,ACK
0.000267833333333,1,0x2B,0x85,Read,ACK
0.000291500000000,1,0x2B,0x00,Read,ACK
0.000315083333333,1,0x2B,0x02,Read,ACK
0.000338750000000,1,0x2B,0x00,Read,ACK
0.000362333333333,1,0x2B,0x03,Read,ACK
0.000385916666667,1,0x2B,0x00,Read,ACK
0.000409583333333,1,0x2B,0x1E,Read,ACK
0.000433166666667,1,0x2B,0x00,Read,ACK
0.000456833333333,1,0x2B,0x04,Read,ACK
0.000480500000000,1,0x2B,0x00,Read,ACK
0.000504083333333,1,0x2B,0x42,Read,ACK
0.000527750000000,1,0x2B,0x00,Read,ACK
0.000551416666667,1,0x2B,0x05,Read,ACK
0.000575000000000,1,0x2B,0x00,Read,ACK
0.000598666666667,1,0x2B,0x06,Read,ACK
0.000622333333333,1,0x2B,0x00,Read,ACK
0.000646000000000,1,0x2B,0x05,Read,ACK
0.000669583333333,1,0x2B,0x0B,Read,ACK
0.000693250000000,1,0x2B,0x01,Read,ACK
0.000716916666667,1,0x2B,0x01,Read,ACK
0.000740500000000,1,0x2B,0x07,Read,ACK
0.000764166666667,1,0x2B,0x00,Read,ACK
0.000787833333333,1,0x2B,0x00,Read,ACK
0.000811416666667,1,0x2B,0x00,Read,ACK
0.000835083333333,1,0x2B,0x00,Read,ACK
0.000858750000000,1,0x2B,0x00,Read,NAK
0.001273166666667,2,0x2A,0x05,Write,ACK
0.001296833333333,2,0x2A,0x00,Write,ACK
0.001320500000000,2,0x2A,0x00,Write,ACK
0.001344166666667,2,0x2A,0x08,Write,ACK
0.002265583333333,3,0x2A,0x05,Write,ACK
0.002289250000000,3,0x2A,0x00,Write,ACK
0.002312916666667,3,0x2A,0x00,Write,ACK
0.002336583333333,3,0x2A,0x01,Write,ACK
0.002578000000000,4,0x2B,0x00,Read,ACK
0.002601666666667,4,0x2B,0x00,Read,ACK
0.002625333333333,4,0x2B,0x00,Read,ACK
0.002649000000000,4,0x2B,0x00,Read,ACK
0.002672666666667,4,0x2B,0x00,Read,ACK
0.002696333333333,4,0x2B,0x00,Read,ACK
0.002720000000000,4,0x2B,0x00,Read,ACK
0.002743583333333,4,0x2B,0x00,Read,ACK
0.002767250000000,4,0x2B,0x00,Read,ACK
0.002790916666667,4,0x2B,0x00,Read,ACK
0.002814583333333,4,0x2B,0x00,Read,ACK
0.002838250000000,4,0x2B,0x00,Read,ACK
0.002861916666667,4,0x2B,0x00,Read,ACK
0.002885500000000,4,0x2B,0x00,Read,ACK
0.002909166666667,4,0x2B,0x00,Read,ACK
0.002932833333333,4,0x2B,0x00,Read,ACK
0.002956583333333,4,0x2B,0x00,Read,ACK
0.002980250000000,4,0x2B,0x00,Read,ACK
0.003003833333333,4,0x2B,0x00,Read,ACK
0.003027500000000,4,0x2B,0x00,Read,ACK
0.003051166666667,4,0x2B,0x00,Read,ACK
0.003074833333333,4,0x2B,0x00,Read,ACK
0.003098500000000,4,0x2B,0x00,Read,ACK
0.003122166666667,4,0x2B,0x00,Read,ACK
0.003145833333333,4,0x2B,0x00,Read,ACK
0.003169500000000,4,0x2B,0x00,Read,ACK
0.003193166666667,4,0x2B,0x00,Read,ACK
0.003216833333333,4,0x2B,0x00,Read,ACK
0.003240416666667,4,0x2B,0x00,Read,ACK
0.003264083333333,4,0x2B,0x00,Read,NAK
0.003663250000000,5,0x2A,0x02,Write,ACK
0.003686916666667,5,0x2A,0x00,Write,ACK
0.003840250000000,6,0x2B,0x05,Read,ACK
0.003863833333333,6,0x2B,0x01,Read,ACK
0.003887500000000,6,0x2B,0x09,Read,ACK
0.003911083333333,6,0x2B,0x02,Read,ACK
0.003934666666667,6,0x2B,0xA1,Read,ACK
0.003958333333333,6,0x2B,0x01,Read,ACK
0.003982000000000,6,0x2B,0x85,Read,ACK
0.004005583333333,6,0x2B,0x01,Read,ACK
0.004029166666667,6,0x2B,0x09,Read,ACK
0.004052833333333,6,0x2B,0x01,Read,ACK
0.004076416666667,6,0x2B,0xA1,Read,ACK
0.004100083333333,6,0x2B,0x00,Read,ACK
0.004123750000000,6,0x2B,0x05,Read,ACK
0.004147416666667,6,0x2B,0x09,Read,ACK
0.004171083333333,6,0x2B,0x19,Read,ACK
0.004194750000000,6,0x2B,0x01,Read,ACK
0.004218333333333,6,0x2B,0x29,Read,ACK
0.004242000000000,6,0x2B,0x02,Read,ACK
0.004265666666667,6,0x2B,0x15,Read,ACK
0.004289333333333,6,0x2B,0x00,Read,ACK
0.004312916666667,6,0x2B,0x25,Read,ACK
0.004336583333333,6,0x2B,0x01,Read,ACK
0.004360250000000,6,0x2B,0x75,Read,ACK
0.004383916666667,6,0x2B,0x01,Read,ACK
0.004407583333333,6,0x2B,0x95,Read,ACK
0.004431250000000,6,0x2B,0x02,Read,ACK
0.004454833333333,6,0x2B,0x81,Read,ACK
0.004478500000000,6,0x2B,0x02,Read,ACK
0.004502166666667,6,0x2B,0x95,Read,ACK
0.004525833333333,6,0x2B,0x06,Read,ACK
0.004549500000000,6,0x2B,0x81,Read,ACK
0.004573083333333,6,0x2B,0x03,Read,ACK
0.004596750000000,6,0x2B,0x05,Read,ACK
0.004620416666667,6,0x2B,0x01,Read,ACK
0.004644083333333,6,0x2B,0x09,Read,ACK
0.004667750000000,6,0x2B,0x30,Read,ACK
0.004691333333333,6,0x2B,0x09,Read,ACK
0.004715000000000,6,0x2B,0x31,Read,ACK
0.004738583333333,6,0x2B,0x09,Read,ACK
0.004762166666667,6,0x2B,0x38,Read,ACK
0.004785750000000,6,0x2B,0x15,Read,ACK
0.004809416666667,6,0x2B,0x81,Read,ACK
0.004833000000000,6,0x2B,0x25,Read,ACK
0.004856666666667,6,0x2B,0x7F,Read,ACK
0.004880333333333,6,0x2B,0x75,Read,ACK
0.004904000000000,6,0x2B,0x08,Read,ACK
0.004927666666667,6,0x2B,0x95,Read,ACK
0.004951250000000,6,0x2B,0x03,Read,ACK
0.004974916666667,6,0x2B,0x81,Read,ACK
0.004998583333333,6,0x2B,0x06,Read,ACK
0.005022250000000,6,0x2B,0xC0,Read,ACK
0.005045833333333,6,0x2B,0xC0,Read,ACK
0.005069500000000,6,0x2B,0x06,Read,ACK
0.005093166666667,6,0x2B,0x00,Read,ACK
0.005116833333333,6,0x2B,0xFF,Read,ACK
0.005140500000000,6,0x2B,0x09,Read,ACK
0.005164166666667,6,0x2B,0xC5,Read,ACK
0.005187750000000,6,0x2B,0xA1,Read,ACK
0.005211416666667,6,0x2B,0x01,Read,ACK
0.005235000000000,6,0x2B,0x85,Read,ACK
0.005258666666667,6,0x2B,0x0D,Read,ACK
0.005282250000000,6,0x2B,0x09,Read,ACK
0.005305916666667,6,0x2B,0xC5,Read,ACK
0.005329500000000,6,0x2B,0x15,Read,ACK
0.005353166666667,6,0x2B,0x00,Read,ACK
0.005376833333333,6,0x2B,0x26,Read,ACK
0.005400500000000,6,0x2B,0xFF,Read,ACK
0.005424166666667,6,0x2B,0x00,Read,ACK
0.005447750000000,6,0x2B,0x75,Read,ACK
0.005471416666667,6,0x2B,0x08,Read,ACK
0.005495000000000,6,0x2B,0x95,Read,ACK
0.005518583333333,6,0x2B,0x04,Read,ACK
0.005542250000000,6,0x2B,0xB1,Read,ACK
0.005565916666667,6,0x2B,0x02,Read,ACK
0.005589500000000,6,0x2B,0x85,Read,ACK
0.005613083333333,6,0x2B,0x0C,Read,ACK
0.005636666666667,6,0x2B,0x09,Read,ACK
0.005660333333333,6,0x2B,0xC6,Read,ACK
0.005684000000000,6,0x2B,0x96,Read,ACK
0.005707666666667,6,0x2B,0x76,Read,ACK
0.005731250000000,6,0x2B,0x02,Read,ACK
0.005754916666667,6,0x2B,0x75,Read,ACK
0.005778583333333,6,0x2B,0x08,Read,ACK
0.005802250000000,6,0x2B,0xB1,Read,ACK
0.005825833333333,6,0x2B,0x02,Read,ACK
0.005849500000000,6,0x2B,0x85,Read,ACK
0.005873166666667,6,0x2B,0x0B,Read,ACK
0.005896833333333,6,0x2B,0x09,Read,ACK
0.005920416666667,6,0x2B,0xC7,Read,ACK
0.005944083333333,6,0x2B,0x95,Read,ACK
0.005967666666667,6,0x2B,0x80,Read,ACK
0.005991333333333,6,0x2B,0x75,Read,ACK
0.006015000000000,6,0x2B,0x08,Read,ACK
0.006038666666667,6,0x2B,0xB1,Read,ACK
0.006062250000000,6,0x2B,0x02,Read,ACK
0.006085916666667,6,0x2B,0x85,Read,ACK
0.006109583333333,6,0x2B,0x5D,Read,ACK
0.006133250000000,6,0x2B,0x09,Read,ACK
0.006156916666667,6,0x2B,0x01,Read,ACK
0.006180583333333,6,0x2B,0x95,Read,ACK
0.006204250000000,6,0x2B,0x1B,Read,ACK
0.006227916666667,6,0x2B,0x75,Read,ACK
0.006251583333333,6,0x2B,0x08,Read,ACK
0.006275166666667,6,0x2B,0x81,Read,ACK
0.006298833333333,6,0x2B,0x06,Read,ACK
0.006322416666667,6,0x2B,0xC0,Read,ACK
0.006346000000000,6,0x2B,0x06,Read,ACK
0.006369666666667,6,0x2B,0x00,Read,ACK
0.006393250000000,6,0x2B,0xFF,Read,ACK
0.006416916666667,6,0x2B,0x09,Read,ACK
0.006440500000000,6,0x2B,0x01,Read,ACK
0.006464250000000,6,0x2B,0xA1,Read,ACK
0.006487916666667,6,0x2B,0x01,Read,ACK
0.006511500000000,6,0x2B,0x15,Read,ACK
0.006535166666667,6,0x2B,0x00,Read,ACK
0.006558833333333,6,0x2B,0x26,Read,ACK
0.006582500000000,6,0x2B,0xFF,Read,ACK
0.006606083333333,6,0x2B,0x00,Read,ACK
0.006629750000000,6,0x2B,0x75,Read,ACK
0.006653416666667,6,0x2B,0x08,Read,ACK
0.006677083333333,6,0x2B,0x85,Read,ACK
0.006700750000000,6,0x2B,0x06,Read,ACK
0.006724333333333,6,0x2B,0x95,Read,ACK
0.006748000000000,6,0x2B,0x3F,Read,ACK
0.006771666666667,6,0x2B,0x09,Read,ACK
0.006795250000000,6,0x2B,0x01,Read,ACK
0.006818916666667,6,0x2B,0x81,Read,ACK
0.006842583333333,6,0x2B,0x02,Read,ACK
0.006866250000000,6,0x2B,0x09,Read,ACK
0.006889916666667,6,0x2B,0x01,Read,ACK
0.006913500000000,6,0x2B,0x91,Read,ACK
0.006937166666667,6,0x2B,0x02,Read,ACK
0.006960833333333,6,0x2B,0xC0,Read,NAK
0.077315500000000,7,0x2A,0x05,Write,ACK
0.077338916666667,7,0x2A,0x00,Write,ACK
0.077362416666667,7,0x2A,0x3D,Write,ACK
0.077385916666667,7,0x2A,0x03,Write,ACK
0.077409416666667,7,0x2A,0x06,Write,ACK
0.077433000000000,7,0x2A,0x00,Write,ACK
0.077456583333333,7,0x2A,0x07,Write,ACK
0.077480083333333,7,0x2A,0x00,Write,ACK
0.077503666666667,7,0x2A,0x0D,Write,ACK
0.077527250000000,7,0x2A,0x05,Write,ACK
0.077550916666667,7,0x2A,0x03,Write,ACK
0.077574500000000,7,0x2A,0x03,Write,ACK
0.077598166666667,7,0x2A,0x44,Write,ACK
0.114540750000000,,0xFF,,Read,NAK
0.114720083333333,8,0xFF,0xFF,Read,NAK
0.114844750000000,8,0xFF,0xFF,Read,NAK
0.114886333333333,8,0xFF,0xFF,Read,NAK
0.115022916666667,8,0xFF,0xFF,Read,NAK
0.115223916666667,8,0xFF,0xFF,Read,NAK
0.115942333333333,8,0xFF,0xFF,Read,NAK
0.116034000000000,8,0xFF,0xFF,Read,NAK
0.116163083333333,8,0xFF,0xFF,Read,NAK
0.116284000000000,8,0xFF,0xFF,Read,NAK
0.116338583333333,8,0xFF,0xFF,Read,NAK
0.116483666666667,8,0xFF,0xFF,Read,NAK
0.116710916666667,8,0xFF,0xFF,Read,NAK
0.139230083333333,9,0x2A,0x05,Write,ACK
0.139253750000000,9,0x2A,0x00,Write,ACK
0.139277416666667,9,0x2A,0x3D,Write,ACK
0.139301083333333,9,0x2A,0x02,Write,ACK
0.139324750000000,9,0x2A,0x06,Write,ACK
0.139348416666667,9,0x2A,0x00,Write,ACK
0.139442666666667,10,0x2B,0x07,Read,ACK
0.139466333333333,10,0x2B,0x00,Read,ACK
0.139489916666667,10,0x2B,0x0D,Read,ACK
0.139513583333333,10,0x2B,0x44,Read,ACK
0.139537166666667,10,0x2B,0x03,Read,ACK
0.139560833333333,10,0x2B,0x00,Read,ACK
0.139584416666667,10,0x2B,0x00,Read,NAK
0.192925083333333,11,0x2A,0x05,Write,ACK
0.192948666666667,11,0x2A,0x00,Write,ACK
0.192972333333333,11,0x2A,0x3D,Write,ACK
0.192996000000000,11,0x2A,0x03,Write,ACK
0.193019583333333,11,0x2A,0x06,Write,ACK
0.193043166666667,11,0x2A,0x00,Write,ACK
0.193066750000000,11,0x2A,0x07,Write,ACK
0.193090416666667,11,0x2A,0x00,Write,ACK
0.193114000000000,11,0x2A,0x0D,Write,ACK
0.193137666666667,11,0x2A,0x00,Write,ACK
0.193161333333333,11,0x2A,0x03,Write,ACK
0.193185000000000,11,0x2A,0x01,Write,ACK
0.193208583333333,11,0x2A,0x00,Write,ACK
0.255259500000000,12,0x2A,0x05,Write,ACK
0.255283333333333,12,0x2A,0x00,Write,ACK
0.255307083333333,12,0x2A,0x3D,Write,ACK
0.255330916666667,12,0x2A,0x03,Write,ACK
0.255354583333333,12,0x2A,0x06,Write,ACK
0.255378333333333,12,0x2A,0x00,Write,ACK
0.255402083333333,12,0x2A,0x07,Write,ACK
0.255425833333333,12,0x2A,0x00,Write,ACK
0.255449500000000,12,0x2A,0x0D,Write,ACK
0.255473166666667,12,0x2A,0x05,Write,ACK
0.255496916666667,12,0x2A,0x03,Write,ACK
0.255520500000000,12,0x2A,0x06,Write,ACK
0.255544166666667,12,0x2A,0x01,Write,ACK
0.317787583333333,13,0x2A,0x05,Write,ACK
0.317811250000000,13,0x2A,0x00,Write,ACK
0.317834916666667,13,0x2A,0x3D,Write,ACK
0.317858583333333,13,0x2A,0x02,Write,ACK
0.317882166666667,13,0x2A,0x06,Write,ACK
0.317905833333333,13,0x2A,0x00,Write,ACK
0.318025583333333,14,0x2B,0x07,Read,ACK
0.318049166666667,14,0x2B,0x00,Read,ACK
0.318072750000000,14,0x2B,0x0D,Read,ACK
0.318096416666667,14,0x2B,0x06,Read,ACK
0.318120000000000,14,0x2B,0x01,Read,ACK
0.318143666666667,14,0x2B,0xF0,Read,ACK
0.318167250000000,14,0x2B,0x0A,Read,NAK
0.380545833333333,15,0x2A,0x05,Write,ACK
0.380569416666667,15,0x2A,0x00,Write,ACK
0.380593000000000,15,0x2A,0x3D,Write,ACK
0.380616666666667,15,0x2A,0x03,Write,ACK
0.380640250000000,15,0x2A,0x06,Write,ACK
0.380664000000000,15,0x2A,0x00,Write,ACK
0.380687666666667,15,0x2A,0x07,Write,ACK
0.380711250000000,15,0x2A,0x00,Write,ACK
0.380734916666667,15,0x2A,0x0D,Write,ACK
0.380758583333333,15,0x2A,0x05,Write,ACK
0.380782250000000,15,0x2A,0x03,Write,ACK
0.380805833333333,15,0x2A,0x07,Write,ACK
0.380829500000000,15,0x2A,0x01,Write,ACK
0.431714500000000,16,0x2A,0x05,Write,ACK
0.431738000000000,16,0x2A,0x00,Write,ACK
0.431761583333333,16,0x2A,0x3D,Write,ACK
0.431785333333333,16,0x2A,0x02,Write,ACK
0.431808916666667,16,0x2A,0x06,Write,ACK
0.431832583333333,16,0x2A,0x00,Write,ACK
0.432304833333333,17,0x2B,0x07,Read,ACK
0.432328583333333,17,0x2B,0x00,Read,ACK
0.432352166666667,17,0x2B,0x0D,Read,ACK
0.432375833333333,17,0x2B,0x07,Read,ACK
0.432399416666667,17,0x2B,0x01,Read,ACK
0.432423000000000,17,0x2B,0xE7,Read,ACK
0.432446583333333,17,0x2B,0x06,Read,NAK
0.494419083333333,18,0x2A,0x05,Write,ACK
0.494442750000000,18,0x2A,0x00,Write,ACK
0.494466333333333,18,0x2A,0x3D,Write,ACK
0.494490000000000,18,0x2A,0x03,Write,ACK
0.494513583333333,18,0x2A,0x06,Write,ACK
0.494537250000000,18,0x2A,0x00,Write,ACK
0.494560916666667,18,0x2A,0x07,Write,ACK
0.494584500000000,18,0x2A,0x00,Write,ACK
0.494608166666667,18,0x2A,0x0D,Write,ACK
0.494631833333333,18,0x2A,0x05,Write,ACK
0.494655416666667,18,0x2A,0x03,Write,ACK
0.494679083333333,18,0x2A,0x0A,Write,ACK
0.494702750000000,18,0x2A,0x01,Write,ACK
0.545550916666667,19,0x2A,0x05,Write,ACK
0.545574666666667,19,0x2A,0x00,Write,ACK
0.545598333333333,19,0x2A,0x3D,Write,ACK
0.545622000000000,19,0x2A,0x02,Write,ACK
0.545645583333333,19,0x2A,0x06,Write,ACK
0.545669250000000,19,0x2A,0x00,Write,ACK
0.546122083333333,20,0x2B,0x07,Read,ACK
0.546145750000000,20,0x2B,0x00,Read,ACK
0.546169416666667,20,0x2B,0x0D,Read,ACK
0.546193083333333,20,0x2B,0x0A,Read,ACK
0.546216666666667,20,0x2B,0x01,Read,ACK
0.546240333333333,20,0x2B,0xF8,Read,ACK
0.546263916666667,20,0x2B,0x03,Read,NAK
0.608008000000000,21,0x2A,0x05,Write,ACK
0.608031583333333,21,0x2A,0x00,Write,ACK
0.608055250000000,21,0x2A,0x3D,Write,ACK
0.608078916666667,21,0x2A,0x03,Write,ACK
0.608102666666667,21,0x2A,0x06,Write,ACK
0.608126250000000,21,0x2A,0x00,Write,ACK
0.608149916666667,21,0x2A,0x07,Write,ACK
0.608173583333333,21,0x2A,0x00,Write,ACK
0.608197166666667,21,0x2A,0x0D,Write,ACK
0.608220750000000,21,0x2A,0x05,Write,ACK
0.608244416666667,21,0x2A,0x03,Write,ACK
0.608268083333333,21,0x2A,0x0B,Write,ACK
0.608291666666667,21,0x2A,0x01,Write,ACK
0.670602833333333,22,0x2A,0x05,Write,ACK
0.670626500000000,22,0x2A,0x00,Write,ACK
0.670650166666667,22,0x2A,0x3D,Write,ACK
0.670673833333333,22,0x2A,0x02,Write,ACK
0.670697500000000,22,0x2A,0x06,Write,ACK
0.670721166666667,22,0x2A,0x00,Write,ACK
0.670793833333333,23,0x2B,0x07,Read,ACK
0.670817416666667,23,0x2B,0x00,Read,ACK
0.670841083333333,23,0x2B,0x0D,Read,ACK
0.670864666666667,23,0x2B,0x0B,Read,ACK
0.670888333333333,23,0x2B,0x01,Read,ACK
0.670912000000000,23,0x2B,0xBD,Read,ACK
0.670935666666667,23,0x2B,0x02,Read,NAK
0.733175166666667,24,0x2A,0x05,Write,ACK
0.733198833333333,24,0x2A,0x00,Write,ACK
0.733222416666667,24,0x2A,0x3D,Write,ACK
0.733245916666667,24,0x2A,0x03,Write,ACK
0.733269500000000,24,0x2A,0x06,Write,ACK
0.733293083333333,24,0x2A,0x00,Write,ACK
0.733316750000000,24,0x2A,0x07,Write,ACK
0.733340333333333,24,0x2A,0x00,Write,ACK
0.733364000000000,24,0x2A,0x0D,Write,ACK
0.733387583333333,24,0x2A,0x05,Write,ACK
0.733411166666667,24,0x2A,0x03,Write,ACK
0.733434750000000,24,0x2A,0x00,Write,ACK
0.733458333333333,24,0x2A,0x01,Write,ACK
0.795661833333333,25,0x2A,0x05,Write,ACK
0.795685416666667,25,0x2A,0x00,Write,ACK
0.795709000000000,25,0x2A,0x3D,Write,ACK
0.795732583333333,25,0x2A,0x02,Write,ACK
0.795756250000000,25,0x2A,0x06,Write,ACK
0.795779916666667,25,0x2A,0x00,Write,ACK
0.795862916666667,26,0x2B,0x07,Read,ACK
0.795886583333333,26,0x2B,0x00,Read,ACK
0.795910166666667,26,0x2B,0x0D,Read,ACK
0.795933666666667,26,0x2B,0x00,Read,ACK
0.795957333333333,26,0x2B,0x01,Read,ACK
0.795980916666667,26,0x2B,0x07,Read,ACK
0.796004500000000,26,0x2B,0x07,Read,NAK
0.858095333333333,27,0x2A,0x05,Write,ACK
0.858119000000000,27,0x2A,0x00,Write,ACK
0.858142666666667,27,0x2A,0x3D,Write,ACK
0.858166250000000,27,0x2A,0x03,Write,ACK
0.858189916666667,27,0x2A,0x06,Write,ACK
0.858213583333333,27,0x2A,0x00,Write,ACK
0.858237166666667,27,0x2A,0x07,Write,ACK
0.858260750000000,27,0x2A,0x00,Write,ACK
0.858284416666667,27,0x2A,0x0D,Write,ACK
0.858308000000000,27,0x2A,0x05,Write,ACK
0.858331583333333,27,0x2A,0x03,Write,ACK
0.858355250000000,27,0x2A,0x03,Write,ACK
0.858378916666667,27,0x2A,0x01,Write,ACK
0.908619416666667,28,0x2A,0x05,Write,ACK
0.908643083333333,28,0x2A,0x00,Write,ACK
0.908666750000000,28,0x2A,0x3D,Write,ACK
0.908690416666667,28,0x2A,0x02,Write,ACK
0.908714083333333,28,0x2A,0x06,Write,ACK
0.908737666666667,28,0x2A,0x00,Write,ACK
0.908845083333333,29,0x2B,0x07,Read,ACK
0.908868750000000,29,0x2B,0x00,Read,ACK
0.908892333333333,29,0x2B,0x0D,Read,ACK
0.908916000000000,29,0x2B,0x03,Read,ACK
0.908939666666667,29,0x2B,0x01,Read,ACK
0.908963333333333,29,0x2B,0x07,Read,ACK
0.908986916666667,29,0x2B,0x07,Read,NAK
7.656411500000000,30,0x2A,0x05,Write,ACK
7.656435166666666,30,0x2A,0x00,Write,ACK
7.656458833333334,30,0x2A,0x3D,Write,ACK
7.656482416666667,30,0x2A,0x03,Write,ACK
7.656506083333333,30,0x2A,0x06,Write,ACK
7.656529666666667,30,0x2A,0x00,Write,ACK
7.656553333333333,30,0x2A,0x07,Write,ACK
7.656577000000000,30,0x2A,0x00,Write,ACK
7.656600583333334,30,0x2A,0x0D,Write,ACK
7.656624250000000,30,0x2A,0x05,Write,ACK
7.656647833333333,30,0x2A,0x03,Write,ACK
7.656671500000000,30,0x2A,0x06,Write,ACK
7.656695166666666,30,0x2A,0x01,Write,ACK
7.720310416666667,31,0x2A,0x05,Write,ACK
7.720334083333333,31,0x2A,0x00,Write,ACK
7.720357750000000,31,0x2A,0x3D,Write,ACK
7.720381416666667,31,0x2A,0x02,Write,ACK
7.720405000000000,31,0x2A,0x06,Write,ACK
7.720428666666667,31,0x2A,0x00,Write,ACK
7.720517333333333,32,0x2B,0x07,Read,ACK
7.720540916666667,32,0x2B,0x00,Read,ACK
7.720564583333333,32,0x2B,0x0D,Read,ACK
7.720588166666666,32,0x2B,0x06,Read,ACK
7.720611750000000,32,0x2B,0x01,Read,ACK
7.720635333333333,32,0x2B,0xF0,Read,ACK
7.720658916666666,32,0x2B,0x0A,Read,NAK
7.787553833333333,33,0x2A,0x05,Write,ACK
7.787577500000000,33,0x2A,0x00,Write,ACK
7.787601083333334,33,0x2A,0x3D,Write,ACK
7.787624666666667,33,0x2A,0x03,Write,ACK
7.787648333333333,33,0x2A,0x06,Write,ACK
7.787671916666667,33,0x2A,0x00,Write,ACK
7.787695583333333,33,0x2A,0x07,Write,ACK
7.787719250000000,33,0x2A,0x00,Write,ACK
7.787742916666667,33,0x2A,0x0D,Write,ACK
7.787766500000000,33,0x2A,0x05,Write,ACK
7.787790166666666,33,0x2A,0x03,Write,ACK
7.787813833333334,33,0x2A,0x07,Write,ACK
7.787837416666667,33,0x2A,0x01,Write,ACK
7.856063250000000,34,0x2A,0x05,Write,ACK
7.856086833333333,34,0x2A,0x00,Write,ACK
7.856110583333333,34,0x2A,0x3D,Write,ACK
7.856134250000000,34,0x2A,0x02,Write,ACK
7.856157916666667,34,0x2A,0x06,Write,ACK
7.856181583333333,34,0x2A,0x00,Write,ACK
7.856256166666666,35,0x2B,0x07,Read,ACK
7.856279833333334,35,0x2B,0x00,Read,ACK
7.856303500000000,35,0x2B,0x0D,Read,ACK
7.856327166666667,35,0x2B,0x07,Read,ACK
7.856350833333333,35,0x2B,0x01,Read,ACK
7.856374583333333,35,0x2B,0xE7,Read,ACK
7.856398250000000,35,0x2B,0x06,Read,NAK
7.918684166666667,36,0x2A,0x05,Write,ACK
7.918707750000000,36,0x2A,0x00,Write,ACK
7.918731416666667,36,0x2A,0x3D,Write,ACK
7.918755083333333,36,0x2A,0x03,Write,ACK
7.918778750000000,36,0x2A,0x06,Write,ACK
7.918802416666667,36,0x2A,0x00,Write,ACK
7.918826083333333,36,0x2A,0x07,Write,ACK
7.918849750000000,36,0x2A,0x00,Write,ACK
7.918873333333333,36,0x2A,0x0D,Write,ACK
7.918897000000000,36,0x2A,0x00,Write,ACK
7.918920666666667,36,0x2A,0x03,Write,ACK
7.918944250000000,36,0x2A,0x01,Write,ACK
7.918967916666666,36,0x2A,0x00,Write,ACK
10.342419083333333,37,0x2B,0x1E,Read,ACK
10.342442750000000,37,0x2B,0x00,Read,ACK
10.342466416666667,37,0x2B,0x5D,Read,ACK
10.342490083333333,37,0x2B,0x08,Read,ACK
10.342513750000000,37,0x2B,0x42,Read,ACK
10.342537333333333,37,0x2B,0xA5,Read,ACK
10.342561000000000,37,0x2B,0x85,Read,ACK
10.342584583333334,37,0x2B,0x30,Read,ACK
10.342608250000000,37,0x2B,0x7F,Read,ACK
10.342631916666667,37,0x2B,0x00,Read,ACK
10.342655499999999,37,0x2B,0x00,Read,ACK
10.342679166666667,37,0x2B,0x00,Read,ACK
10.342702750000001,37,0x2B,0x00,Read,ACK
10.342726416666666,37,0x2B,0x00,Read,ACK
10.342750083333334,37,0x2B,0x00,Read,ACK
10.342773666666666,37,0x2B,0x00,Read,ACK
10.342797333333333,37,0x2B,0x00,Read,ACK
10.342820916666666,37,0x2B,0x00,Read,ACK
10.342844583333333,37,0x2B,0x00,Read,ACK
10.342868250000000,37,0x2B,0x00,Read,ACK
10.342891916666666,37,0x2B,0x00,Read,ACK
