        modprobe-4286  [007] ....  9853.951233: i2c_write: i2c-7 #0 a=015 f=0000 l=2 [01-00]
        modprobe-4286  [007] ....  9853.951244: i2c_read: i2c-7 #1 a=015 f=0001 l=30
        modprobe-4286  [005] ....  9853.952170: i2c_reply: i2c-7 #1 a=015 f=0001 l=30 [1e-00-00-01-85-00-02-00-03-00-1e-00-04-00-42-00-05-00-06-00-05-0b-01-01-07-00-00-00-00-00]
        modprobe-4286  [005] ....  9853.952179: i2c_result: i2c-7 n=2 ret=2
        modprobe-4286  [005] ....  9853.952284: i2c_write: i2c-7 #0 a=015 f=0000 l=4 [05-00-00-08]
        modprobe-4286  [005] ....  9853.952459: i2c_result: i2c-7 n=1 ret=1
        modprobe-4286  [005] ....  9853.952462: i2c_write: i2c-7 #0 a=015 f=0000 l=4 [05-00-00-01]
        modprobe-4286  [005] ....  9853.952628: i2c_result: i2c-7 n=1 ret=1
 irq/95-FTE1001:-4288  [001] ....  9853.952644: i2c_read: i2c-7 #0 a=015 f=0001 l=30
 irq/95-FTE1001:-4288  [001] ....  9853.953437: i2c_reply: i2c-7 #0 a=015 f=0001 l=30 [00-00-00-00-00-00-00-00-00-00-00-00-00-00-00-00-00-00-00-00-00-00-00-00-00-00-00-00-00-00]
 irq/95-FTE1001:-4288  [001] ....  9853.953441: i2c_result: i2c-7 n=1 ret=1
        modprobe-4286  [005] ....  9853.953449: i2c_write: i2c-7 #0 a=015 f=0000 l=2 [02-00]
        modprobe-4286  [005] ....  9853.953450: i2c_read: i2c-7 #1 a=015 f=0001 l=133
        modprobe-4286  [005] ....  9853.956773: i2c_reply: i2c-7 #1 a=015 f=0001 l=133 [05-01-09-02-a1-01-85-01-09-01-a1-00-05-09-19-01-29-02-15-00-25-01-75-01-95-02-81-02-95-06-81-03-05-01-09-30-09-31-09-38-15-81-25-7f-75-08-95-03-81-06-c0-c0-06-00-ff-09-c5-a1-01-85-0d-09-c5-15]
        modprobe-4286  [005] ....  9853.956776: i2c_result: i2c-7 n=2 ret=2
        modprobe-4286  [005] ....  9853.957271: i2c_write: i2c-7 #0 a=015 f=0000 l=6 [05-00-3d-02-06-00]
        modprobe-4286  [005] ....  9853.957275: i2c_read: i2c-7 #1 a=015 f=0001 l=7
        modprobe-4286  [005] ....  9853.957691: i2c_reply: i2c-7 #1 a=015 f=0001 l=7 [07-00-0d-00-01-07-07]
        modprobe-4286  [005] ....  9853.957695: i2c_result: i2c-7 n=2 ret=2
        modprobe-4286  [005] ....  9853.957698: i2c_write: i2c-7 #0 a=015 f=0000 l=6 [05-00-3c-02-06-00]
        modprobe-4286  [005] ....  9853.957698: i2c_read: i2c-7 #1 a=015 f=0001 l=633
        modprobe-4286  [005] ....  9853.973089: i2c_reply: i2c-7 #1 a=015 f=0001 l=633 [00-00-00-00-00-00-00-00-00-00-00-00-00-00-00-00-00-00-00-00-00-00-00-00-00-00-00-00-00-00-00-00-00-00-00-00-00-00-00-00-00-00-00-00-00-00-00-00-00-00-00-00-00-00-00-00-00-00-00-00-00-00-00-00]
        modprobe-4286  [005] ....  9853.973092: i2c_result: i2c-7 n=2 ret=2
        modprobe-4286  [005] ....  9853.973098: i2c_write: i2c-7 #0 a=015 f=0000 l=6 [05-00-3b-02-06-00]
        modprobe-4286  [005] ....  9853.973098: i2c_read: i2c-7 #1 a=015 f=0001 l=131
        modprobe-4286  [005] ....  9853.976463: i2c_reply: i2c-7 #1 a=015 f=0001 l=131 [00-00-00-00-00-00-00-00-00-00-00-00-00-00-00-00-00-00-00-00-00-00-00-00-00-00-00-00-00-00-00-00-00-00-00-00-00-00-00-00-00-00-00-00-00-00-00-00-00-00-00-00-00-00-00-00-00-00-00-00-00-00-00-00]
        modprobe-4286  [005] ....  9853.976464: i2c_result: i2c-7 n=2 ret=2
     kworker/5:1-216   [005] ....  9854.015021: i2c_write: i2c-7 #0 a=015 f=0000 l=4 [05-00-01-08]
     kworker/5:1-216   [005] ....  9854.015198: i2c_result: i2c-7 n=1 ret=1
            Xorg-1036  [004] ....  9854.041049: i2c_write: i2c-7 #0 a=015 f=0000 l=4 [05-00-00-08]
            Xorg-1036  [002] ....  9854.041264: i2c_result: i2c-7 n=1 ret=1
 irq/95-FTE1001:-4288  [001] ....  9859.039125: i2c_read: i2c-7 #0 a=015 f=0001 l=30
 irq/95-FTE1001:-4288  [001] ....  9859.147978: i2c_reply: i2c-7 #0 a=015 f=0001 l=30 [07-00-01-00-00-00-00-00-00-00-00-00-00-00-00-00-00-00-00-00-00-00-00-00-00-00-00-00-00-00]
 irq/95-FTE1001:-4288  [001] ....  9859.147992: i2c_result: i2c-7 n=1 ret=1
 irq/95-FTE1001:-4288  [001] ....  9859.273615: i2c_read: i2c-7 #0 a=015 f=0001 l=30
 irq/95-FTE1001:-4288  [001] ....  9859.274446: i2c_reply: i2c-7 #0 a=015 f=0001 l=30 [07-00-01-01-00-00-00-00-00-00-00-00-00-00-00-00-00-00-00-00-00-00-00-00-00-00-00-00-00-00]
 irq/95-FTE1001:-4288  [001] ....  9859.274458: i2c_result: i2c-7 n=1 ret=1
 irq/95-FTE1001:-4288  [001] ....  9859.281164: i2c_read: i2c-7 #0 a=015 f=0001 l=30
 irq/95-FTE1001:-4288  [001] ....  9859.281990: i2c_reply: i2c-7 #0 a=015 f=0001 l=30 [07-00-01-00-00-00-00-00-00-00-00-00-00-00-00-00-00-00-00-00-00-00-00-00-00-00-00-00-00-00]
 irq/95-FTE1001:-4288  [001] ....  9859.282000: i2c_result: i2c-7 n=1 ret=1
